Index       TIME             V(IN0)            V(IN1)            V(OUT)      
0        0.00000000e+00    0.00000000e+00    0.00000000e+00    1.79999994e+00
1        1.00000000e-12    0.00000000e+00    0.00000000e+00    1.79999994e+00
2        3.00000000e-12    0.00000000e+00    0.00000000e+00    1.79999994e+00
3        7.00000000e-12    0.00000000e+00    0.00000000e+00    1.79999994e+00
4        1.50000000e-11    0.00000000e+00    0.00000000e+00    1.79999994e+00
5        3.10000000e-11    0.00000000e+00    0.00000000e+00    1.79999994e+00
6        6.30000000e-11    0.00000000e+00    0.00000000e+00    1.79999994e+00
7        1.27000000e-10    0.00000000e+00    0.00000000e+00    1.79999994e+00
8        2.55000000e-10    0.00000000e+00    0.00000000e+00    1.79999994e+00
9        5.11000000e-10    0.00000000e+00    0.00000000e+00    1.79999994e+00
10       1.02300000e-09    0.00000000e+00    0.00000000e+00    1.79999994e+00
11       2.04700000e-09    0.00000000e+00    0.00000000e+00    1.79999994e+00
12       4.09500000e-09    0.00000000e+00    0.00000000e+00    1.79999994e+00
13       4.50000000e-09    0.00000000e+00    0.00000000e+00    1.79999994e+00
14       4.50312500e-09    1.12500000e-02    0.00000000e+00    1.80464773e+00
15       4.50937500e-09    3.37500000e-02    0.00000000e+00    1.81350227e+00
16       4.51562500e-09    5.62500000e-02    0.00000000e+00    1.82214155e+00
17       4.52812500e-09    1.01250000e-01    0.00000000e+00    1.83797341e+00
18       4.55312500e-09    1.91250000e-01    0.00000000e+00    1.86403527e+00
19       4.57812500e-09    2.81250000e-01    0.00000000e+00    1.88427816e+00
20       4.60312500e-09    3.71250000e-01    0.00000000e+00    1.90113475e+00
21       4.65312500e-09    5.51250000e-01    0.00000000e+00    1.93184494e+00
22       4.70312500e-09    7.31250000e-01    0.00000000e+00    1.94416944e+00
23       4.70778333e-09    7.48020001e-01    0.00000000e+00    1.94248798e+00
24       4.71710000e-09    7.81560003e-01    0.00000000e+00    1.93649905e+00
25       4.72641667e-09    8.15100006e-01    0.00000000e+00    1.92449934e+00
26       4.73573334e-09    8.48640008e-01    0.00000000e+00    1.90480564e+00
27       4.74505000e-09    8.82180010e-01    0.00000000e+00    1.87495089e+00
28       4.75436667e-09    9.15720012e-01    0.00000000e+00    1.83323931e+00
29       4.76368334e-09    9.49260015e-01    0.00000000e+00    1.77614280e+00
30       4.76532114e-09    9.55156119e-01    0.00000000e+00    1.76230491e+00
31       4.76695895e-09    9.61052224e-01    0.00000000e+00    1.74735846e+00
32       4.77023457e-09    9.72844434e-01    0.00000000e+00    1.71341287e+00
33       4.77351018e-09    9.84636644e-01    0.00000000e+00    1.67469523e+00
34       4.77678579e-09    9.96428854e-01    0.00000000e+00    1.63192391e+00
35       4.78333702e-09    1.02001327e+00    0.00000000e+00    1.53533078e+00
36       4.78988825e-09    1.04359769e+00    0.00000000e+00    1.42456480e+00
37       4.79643948e-09    1.06718211e+00    0.00000000e+00    1.29978621e+00
38       4.80299070e-09    1.09076653e+00    0.00000000e+00    1.16130223e+00
39       4.80954193e-09    1.11435095e+00    0.00000000e+00    1.00970783e+00
40       4.81609316e-09    1.13793537e+00    0.00000000e+00    8.46233142e-01
41       4.82264439e-09    1.16151979e+00    0.00000000e+00    6.73206617e-01
42       4.82919561e-09    1.18510421e+00    0.00000000e+00    4.96134159e-01
43       4.83376027e-09    1.20153698e+00    0.00000000e+00    3.80065670e-01
44       4.83589720e-09    1.20922990e+00    0.00000000e+00    3.32280045e-01
45       4.83803412e-09    1.21692283e+00    0.00000000e+00    2.89392626e-01
46       4.84230797e-09    1.23230869e+00    0.00000000e+00    2.19360484e-01
47       4.84658182e-09    1.24769454e+00    0.00000000e+00    1.65724622e-01
48       4.85085567e-09    1.26308040e+00    0.00000000e+00    1.24764537e-01
49       4.85512951e-09    1.27846625e+00    0.00000000e+00    9.39131574e-02
50       4.85940336e-09    1.29385211e+00    0.00000000e+00    7.10209761e-02
51       4.86367721e-09    1.30923796e+00    0.00000000e+00    5.43067434e-02
52       4.86795106e-09    1.32462382e+00    0.00000000e+00    4.22385589e-02
53       4.87649876e-09    1.35539553e+00    0.00000000e+00    2.72475384e-02
54       4.89359415e-09    1.41693895e+00    0.00000000e+00    1.55774731e-02
55       4.92778494e-09    1.54002579e+00    0.00000000e+00    1.18132697e-02
56       4.95743556e-09    1.64676803e+00    0.00000000e+00    1.10329313e-02
57       4.98708619e-09    1.75351027e+00    0.00000000e+00    1.00604646e-02
58       5.00000000e-09    1.80000000e+00    0.00000000e+00    9.76309386e-03
59       5.00593012e-09    1.80000000e+00    0.00000000e+00    5.34096085e-03
60       5.01186025e-09    1.80000000e+00    0.00000000e+00    2.93524052e-03
61       5.01779037e-09    1.80000000e+00    0.00000000e+00    1.23316872e-03
62       5.02965062e-09    1.80000000e+00    0.00000000e+00    1.25818463e-04
63       5.05337112e-09    1.80000000e+00    0.00000000e+00   -3.23405641e-05
64       5.07709162e-09    1.80000000e+00    0.00000000e+00    1.00710922e-05
65       5.12453261e-09    1.80000000e+00    0.00000000e+00   -5.56661168e-06
66       5.21941460e-09    1.80000000e+00    0.00000000e+00    4.22396936e-06
67       5.40917858e-09    1.80000000e+00    0.00000000e+00   -3.66003810e-06
68       5.78870653e-09    1.80000000e+00    0.00000000e+00    3.42005930e-06
69       6.54776245e-09    1.80000000e+00    0.00000000e+00   -3.29461687e-06
70       8.06587427e-09    1.80000000e+00    0.00000000e+00    3.24470827e-06
71       9.50000000e-09    1.80000000e+00    0.00000000e+00   -3.17756533e-06
72       9.50312500e-09    1.78875000e+00    1.12500000e-02   -2.80916761e-03
73       9.50937500e-09    1.76625000e+00    3.37500000e-02   -5.54698266e-03
74       9.51500000e-09    1.74600000e+00    5.40000000e-02   -6.85315051e-03
75       9.52062500e-09    1.72575000e+00    7.42500000e-02   -7.76405629e-03
76       9.53187500e-09    1.68525000e+00    1.14750000e-01   -8.39804724e-03
77       9.54312500e-09    1.64475000e+00    1.55250000e-01   -8.58185702e-03
78       9.56562500e-09    1.56375000e+00    2.36250000e-01   -8.87232030e-03
79       9.58812500e-09    1.48275000e+00    3.17250000e-01   -9.00916976e-03
80       9.63312500e-09    1.32075000e+00    4.79250000e-01   -8.59269600e-03
81       9.67812500e-09    1.15875000e+00    6.41250000e-01   -7.34960651e-03
82       9.73128272e-09    9.67382197e-01    8.32617803e-01   -6.09233917e-03
83       9.73953733e-09    9.37665617e-01    8.62334383e-01   -5.36371925e-03
84       9.74779193e-09    9.07949037e-01    8.92050963e-01   -4.39614418e-03
85       9.76430115e-09    8.48515876e-01    9.51484124e-01   -1.43527729e-03
86       9.78081036e-09    7.89082716e-01    1.01091728e+00    2.36515694e-03
87       9.79731957e-09    7.29649556e-01    1.07035044e+00    6.89870178e-03
88       9.81382878e-09    6.70216395e-01    1.12978360e+00    1.13462757e-02
89       9.84684720e-09    5.51350075e-01    1.24864993e+00    1.81361219e-02
90       9.87656378e-09    4.44370386e-01    1.35562961e+00    1.93508076e-02
91       9.90628036e-09    3.37390697e-01    1.46260930e+00    1.84543453e-02
92       9.93599694e-09    2.30411008e-01    1.56958899e+00    1.69413280e-02
93       9.99543010e-09    1.64516310e-02    1.78354837e+00    1.41106610e-02
94       1.00000000e-08    0.00000000e+00    1.80000000e+00    1.38849238e-02
95       1.00045699e-08    0.00000000e+00    1.80000000e+00    1.14065200e-02
96       1.00085541e-08    0.00000000e+00    1.80000000e+00    9.85069960e-03
97       1.00125382e-08    0.00000000e+00    1.80000000e+00    8.53799349e-03
98       1.00205066e-08    0.00000000e+00    1.80000000e+00    6.89166597e-03
99       1.00364433e-08    0.00000000e+00    1.80000000e+00    5.18650585e-03
100      1.00683167e-08    0.00000000e+00    1.80000000e+00    3.48521117e-03
101      1.01001900e-08    0.00000000e+00    1.80000000e+00    2.53411341e-03
102      1.01320634e-08    0.00000000e+00    1.80000000e+00    1.94789284e-03
103      1.01958102e-08    0.00000000e+00    1.80000000e+00    1.27566832e-03
104      1.03233037e-08    0.00000000e+00    1.80000000e+00    7.08699508e-04
105      1.05782907e-08    0.00000000e+00    1.80000000e+00    3.48438167e-04
106      1.08332778e-08    0.00000000e+00    1.80000000e+00    2.30630222e-04
107      1.13432519e-08    0.00000000e+00    1.80000000e+00    1.29573451e-04
108      1.18022286e-08    0.00000000e+00    1.80000000e+00    9.55635377e-05
109      1.22612052e-08    0.00000000e+00    1.80000000e+00    7.14115155e-05
110      1.31791586e-08    0.00000000e+00    1.80000000e+00    5.04905683e-05
111      1.45000000e-08    0.00000000e+00    1.80000000e+00    3.16258862e-05
112      1.45031250e-08    1.12500000e-02    1.80000000e+00    8.78104456e-04
113      1.45093750e-08    3.37500000e-02    1.80000000e+00    1.75418911e-03
114      1.45156250e-08    5.62500000e-02    1.80000000e+00    2.34419356e-03
115      1.45281250e-08    1.01250000e-01    1.80000000e+00    2.66323266e-03
116      1.45531250e-08    1.91250000e-01    1.80000000e+00    2.65015792e-03
117      1.45781250e-08    2.81250000e-01    1.80000000e+00    2.80998443e-03
118      1.46031250e-08    3.71250000e-01    1.80000000e+00    3.32919839e-03
119      1.46531250e-08    5.51250000e-01    1.80000000e+00    5.38210493e-03
120      1.47531250e-08    9.11250000e-01    1.80000000e+00    7.86577328e-03
121      1.48531250e-08    1.27125000e+00    1.80000000e+00    5.69053176e-03
122      1.49531250e-08    1.63125000e+00    1.80000000e+00    5.26749200e-03
123      1.50000000e-08    1.80000000e+00    1.80000000e+00    4.69101433e-03
124      1.50100000e-08    1.80000000e+00    1.80000000e+00    1.52898284e-03
125      1.50200000e-08    1.80000000e+00    1.80000000e+00    5.00635065e-04
126      1.50300000e-08    1.80000000e+00    1.80000000e+00   -7.45707098e-06
127      1.50500000e-08    1.80000000e+00    1.80000000e+00    3.16562927e-06
128      1.50900000e-08    1.80000000e+00    1.80000000e+00   -2.01635067e-06
129      1.51300000e-08    1.80000000e+00    1.80000000e+00    1.32298041e-06
130      1.52100000e-08    1.80000000e+00    1.80000000e+00   -1.05891189e-06
131      1.53700000e-08    1.80000000e+00    1.80000000e+00    9.54838358e-07
132      1.56900000e-08    1.80000000e+00    1.80000000e+00   -9.00881584e-07
133      1.63300000e-08    1.80000000e+00    1.80000000e+00    8.80591369e-07
134      1.76100000e-08    1.80000000e+00    1.80000000e+00   -8.65093647e-07
135      2.01100000e-08    1.80000000e+00    1.80000000e+00    8.62831053e-07
136      2.26100000e-08    1.80000000e+00    1.80000000e+00   -8.53192083e-07
137      2.50000000e-08    1.80000000e+00    1.80000000e+00    8.50740723e-07
End of Xyce(TM) Simulation
