Index       TIME             V(IN1)            V(IN2)            V(OUT)      
0        0.00000000e+00    0.00000000e+00    0.00000000e+00    1.79999995e+00
1        1.00000000e-12    0.00000000e+00    0.00000000e+00    1.79999995e+00
2        3.00000000e-12    0.00000000e+00    0.00000000e+00    1.79999995e+00
3        7.00000000e-12    0.00000000e+00    0.00000000e+00    1.79999995e+00
4        1.50000000e-11    0.00000000e+00    0.00000000e+00    1.79999995e+00
5        3.10000000e-11    0.00000000e+00    0.00000000e+00    1.79999995e+00
6        6.30000000e-11    0.00000000e+00    0.00000000e+00    1.79999995e+00
7        1.27000000e-10    0.00000000e+00    0.00000000e+00    1.79999995e+00
8        2.55000000e-10    0.00000000e+00    0.00000000e+00    1.79999995e+00
9        5.11000000e-10    0.00000000e+00    0.00000000e+00    1.79999995e+00
10       1.02300000e-09    0.00000000e+00    0.00000000e+00    1.79999995e+00
11       1.50000000e-09    0.00000000e+00    0.00000000e+00    1.79999995e+00
12       1.51250000e-09    4.50000000e-02    0.00000000e+00    1.80428152e+00
13       1.52143972e-09    7.71829936e-02    0.00000000e+00    1.80760797e+00
14       1.53037944e-09    1.09365987e-01    0.00000000e+00    1.81095698e+00
15       1.54825888e-09    1.73731974e-01    0.00000000e+00    1.81721164e+00
16       1.58401776e-09    3.02463949e-01    0.00000000e+00    1.82757749e+00
17       1.61977665e-09    4.31195923e-01    0.00000000e+00    1.83711069e+00
18       1.69129441e-09    6.88659872e-01    0.00000000e+00    1.85066957e+00
19       1.71264365e-09    7.65517156e-01    0.00000000e+00    1.83995336e+00
20       1.72233823e-09    8.00417628e-01    0.00000000e+00    1.83057971e+00
21       1.73203281e-09    8.35318100e-01    0.00000000e+00    1.81825413e+00
22       1.75142196e-09    9.05119044e-01    0.00000000e+00    1.77295024e+00
23       1.76845958e-09    9.66454497e-01    0.00000000e+00    1.70577754e+00
24       1.78354469e-09    1.02076088e+00    0.00000000e+00    1.61954293e+00
25       1.79712128e-09    1.06963662e+00    0.00000000e+00    1.51434998e+00
26       1.80895563e-09    1.11224027e+00    0.00000000e+00    1.39592380e+00
27       1.81960654e-09    1.15058356e+00    0.00000000e+00    1.26348855e+00
28       1.83025746e-09    1.18892685e+00    0.00000000e+00    1.09424855e+00
29       1.83932612e-09    1.22157403e+00    0.00000000e+00    9.08922662e-01
30       1.84686116e-09    1.24870017e+00    0.00000000e+00    7.29414539e-01
31       1.85439620e-09    1.27582630e+00    0.00000000e+00    5.36250183e-01
32       1.86193123e-09    1.30295244e+00    0.00000000e+00    3.52551509e-01
33       1.86304525e-09    1.30696291e+00    0.00000000e+00    3.28754340e-01
34       1.86415927e-09    1.31097338e+00    0.00000000e+00    3.05993283e-01
35       1.86638731e-09    1.31899433e+00    0.00000000e+00    2.64440426e-01
36       1.86861535e-09    1.32701527e+00    0.00000000e+00    2.27895955e-01
37       1.87084339e-09    1.33503622e+00    0.00000000e+00    1.95927970e-01
38       1.87307143e-09    1.34305716e+00    0.00000000e+00    1.68144786e-01
39       1.87529947e-09    1.35107811e+00    0.00000000e+00    1.44124476e-01
40       1.87975555e-09    1.36712000e+00    0.00000000e+00    1.05779761e-01
41       1.88421163e-09    1.38316189e+00    0.00000000e+00    7.80590251e-02
42       1.88866772e-09    1.39920378e+00    0.00000000e+00    5.83895372e-02
43       1.89312380e-09    1.41524566e+00    0.00000000e+00    4.45884186e-02
44       1.89757988e-09    1.43128755e+00    0.00000000e+00    3.49837736e-02
45       1.90649204e-09    1.46337133e+00    0.00000000e+00    2.33662348e-02
46       1.92431636e-09    1.52753889e+00    0.00000000e+00    1.42546562e-02
47       1.94214068e-09    1.59170645e+00    0.00000000e+00    1.16981750e-02
48       1.95996500e-09    1.65587400e+00    0.00000000e+00    1.01877784e-02
49       1.97778932e-09    1.72004156e+00    0.00000000e+00    9.12490041e-03
50       2.00000000e-09    1.80000000e+00    0.00000000e+00    8.18480732e-03
51       2.00356486e-09    1.80000000e+00    0.00000000e+00    6.02664267e-03
52       2.00712973e-09    1.80000000e+00    0.00000000e+00    4.58991525e-03
53       2.01069459e-09    1.80000000e+00    0.00000000e+00    3.42849524e-03
54       2.01782432e-09    1.80000000e+00    0.00000000e+00    2.20738892e-03
55       2.03208378e-09    1.80000000e+00    0.00000000e+00    1.44947002e-03
56       2.06060269e-09    1.80000000e+00    0.00000000e+00    1.15399586e-03
57       2.08912161e-09    1.80000000e+00    0.00000000e+00    9.55262353e-04
58       2.14615944e-09    1.80000000e+00    0.00000000e+00    6.95421788e-04
59       2.26023509e-09    1.80000000e+00    0.00000000e+00    4.37304461e-04
60       2.48838641e-09    1.80000000e+00    0.00000000e+00    2.39508884e-04
61       2.94468904e-09    1.80000000e+00    0.00000000e+00    1.20256227e-04
62       3.40099167e-09    1.80000000e+00    0.00000000e+00    7.98506472e-05
63       3.50000000e-09    1.80000000e+00    0.00000000e+00    7.44026212e-05
64       3.50312500e-09    1.78875000e+00    1.12500000e-02   -1.22967994e-03
65       3.50937500e-09    1.76625000e+00    3.37500000e-02   -2.56719172e-03
66       3.51562500e-09    1.74375000e+00    5.62500000e-02   -3.50731179e-03
67       3.52812500e-09    1.69875000e+00    1.01250000e-01   -4.14464431e-03
68       3.55312500e-09    1.60875000e+00    1.91250000e-01   -4.55170531e-03
69       3.57812500e-09    1.51875000e+00    2.81250000e-01   -4.84571061e-03
70       3.60312500e-09    1.42875000e+00    3.71250000e-01   -4.91861468e-03
71       3.65312500e-09    1.24875000e+00    5.51250000e-01   -3.99846387e-03
72       3.70312500e-09    1.06875000e+00    7.31250000e-01   -1.57619781e-03
73       3.75312500e-09    8.88750000e-01    9.11250000e-01    2.65531894e-04
74       3.75937500e-09    8.66250000e-01    9.33750000e-01    4.25187488e-04
75       3.77187500e-09    8.21250000e-01    9.78750000e-01    8.27778320e-04
76       3.77566901e-09    8.07591569e-01    9.92408431e-01    9.45616835e-04
77       3.77946302e-09    7.93933138e-01    1.00606686e+00    1.08007606e-03
78       3.78705103e-09    7.66616276e-01    1.03338372e+00    1.35825390e-03
79       3.79463905e-09    7.39299414e-01    1.06070059e+00    1.65293673e-03
80       3.80222707e-09    7.11982552e-01    1.08801745e+00    1.96529520e-03
81       3.80981509e-09    6.84665690e-01    1.11533431e+00    2.29636600e-03
82       3.81740310e-09    6.57348828e-01    1.14265117e+00    2.64376005e-03
83       3.82499112e-09    6.30031966e-01    1.16996803e+00    3.00457406e-03
84       3.83257914e-09    6.02715104e-01    1.19728490e+00    3.37282065e-03
85       3.84016716e-09    5.75398242e-01    1.22460176e+00    3.74261783e-03
86       3.84775517e-09    5.48081379e-01    1.25191862e+00    4.10542706e-03
87       3.85534319e-09    5.20764517e-01    1.27923548e+00    4.45261176e-03
88       3.86544432e-09    4.84400437e-01    1.31559956e+00    4.73037481e-03
89       3.87554546e-09    4.48036357e-01    1.35196364e+00    5.18316649e-03
90       3.88390781e-09    4.17931867e-01    1.38206813e+00    5.48106523e-03
91       3.89227017e-09    3.87827376e-01    1.41217262e+00    5.71755509e-03
92       3.90899489e-09    3.27618395e-01    1.47238161e+00    6.01750515e-03
93       3.94244432e-09    2.07200432e-01    1.59279957e+00    6.07003162e-03
94       3.97589376e-09    8.67824698e-02    1.71321753e+00    5.67667183e-03
95       4.00000000e-09    0.00000000e+00    1.80000000e+00    5.40153181e-03
96       4.00334494e-09    0.00000000e+00    1.80000000e+00    3.67077192e-03
97       4.00668989e-09    0.00000000e+00    1.80000000e+00    2.50396870e-03
98       4.01003483e-09    0.00000000e+00    1.80000000e+00    1.55839816e-03
99       4.01672472e-09    0.00000000e+00    1.80000000e+00    5.68380015e-04
100      4.03010449e-09    0.00000000e+00    1.80000000e+00    1.98138349e-05
101      4.05686404e-09    0.00000000e+00    1.80000000e+00   -6.83385472e-06
102      4.08362359e-09    0.00000000e+00    1.80000000e+00    2.31778090e-06
103      4.13714268e-09    0.00000000e+00    1.80000000e+00   -1.37535382e-06
104      4.19066177e-09    0.00000000e+00    1.80000000e+00    8.38416945e-07
105      4.29769996e-09    0.00000000e+00    1.80000000e+00   -6.45913403e-07
106      4.51177634e-09    0.00000000e+00    1.80000000e+00    5.75886819e-07
107      4.93992910e-09    0.00000000e+00    1.80000000e+00   -5.35473442e-07
108      5.50000000e-09    0.00000000e+00    1.80000000e+00    5.16239298e-07
109      5.50312500e-09    1.12500000e-02    1.80000000e+00    3.72889549e-04
110      5.50937500e-09    3.37500000e-02    1.80000000e+00    7.55852817e-04
111      5.51562500e-09    5.62500000e-02    1.80000000e+00    1.03033124e-03
112      5.52812500e-09    1.01250000e-01    1.80000000e+00    1.22099977e-03
113      5.54062500e-09    1.46250000e-01    1.80000000e+00    1.27630404e-03
114      5.56562500e-09    2.36250000e-01    1.80000000e+00    1.41681445e-03
115      5.59062500e-09    3.26250000e-01    1.80000000e+00    1.69524232e-03
116      5.64062500e-09    5.06250000e-01    1.80000000e+00    2.83076357e-03
117      5.69062500e-09    6.86250000e-01    1.80000000e+00    4.55202349e-03
118      5.74062500e-09    8.66250000e-01    1.80000000e+00    4.86338089e-03
119      5.79062500e-09    1.04625000e+00    1.80000000e+00    4.39150122e-03
120      5.84062500e-09    1.22625000e+00    1.80000000e+00    3.95732779e-03
121      5.90090208e-09    1.44324750e+00    1.80000000e+00    3.53057058e-03
122      5.93565371e-09    1.56835334e+00    1.80000000e+00    3.35395113e-03
123      5.96693017e-09    1.68094861e+00    1.80000000e+00    3.21940859e-03
124      5.99820663e-09    1.79354387e+00    1.80000000e+00    3.11024837e-03
125      6.00000000e-09    1.80000000e+00    1.80000000e+00    3.10345296e-03
126      6.00179337e-09    1.80000000e+00    1.80000000e+00    2.19504802e-03
127      6.00538011e-09    1.80000000e+00    1.80000000e+00    1.21528407e-03
128      6.00896684e-09    1.80000000e+00    1.80000000e+00    5.17373639e-04
129      6.01614032e-09    1.80000000e+00    1.80000000e+00    5.56997303e-05
130      6.03048727e-09    1.80000000e+00    1.80000000e+00   -1.40698183e-05
131      6.05918117e-09    1.80000000e+00    1.80000000e+00    8.06062254e-06
132      6.11656897e-09    1.80000000e+00    1.80000000e+00   -6.03794589e-06
133      6.23134458e-09    1.80000000e+00    1.80000000e+00    5.26845862e-06
134      6.46089579e-09    1.80000000e+00    1.80000000e+00   -4.89429189e-06
135      6.91999821e-09    1.80000000e+00    1.80000000e+00    4.74267280e-06
136      7.83820306e-09    1.80000000e+00    1.80000000e+00   -4.64356944e-06
137      8.00000000e-09    1.80000000e+00    1.80000000e+00    4.22216921e-06
138      8.16179694e-09    1.80000000e+00    1.80000000e+00    1.21067850e-07
139      8.48539083e-09    1.80000000e+00    1.80000000e+00    9.93198406e-09
140      9.13257860e-09    1.80000000e+00    1.80000000e+00    6.91305704e-09
141      1.04269542e-08    1.80000000e+00    1.80000000e+00    9.86077461e-09
142      1.29269542e-08    1.80000000e+00    1.80000000e+00    6.92542666e-09
143      1.54269542e-08    1.80000000e+00    1.80000000e+00    9.82257314e-09
144      1.79269542e-08    1.80000000e+00    1.80000000e+00    6.91534688e-09
145      2.04269542e-08    1.80000000e+00    1.80000000e+00    9.77805085e-09
146      2.29269542e-08    1.80000000e+00    1.80000000e+00    6.91184608e-09
147      2.50000000e-08    1.80000000e+00    1.80000000e+00    9.73392969e-09
End of Xyce(TM) Simulation
