Index       TIME             V(IN00)           V(IN01)           V(IN10)           V(IN11)           V(OUT)      
0        0.00000000e+00    0.00000000e+00    0.00000000e+00    0.00000000e+00    0.00000000e+00    1.48538711e-08
1        1.00000000e-12    0.00000000e+00    0.00000000e+00    0.00000000e+00    0.00000000e+00    1.48538711e-08
2        3.00000000e-12    0.00000000e+00    0.00000000e+00    0.00000000e+00    0.00000000e+00    1.48538709e-08
3        7.00000000e-12    0.00000000e+00    0.00000000e+00    0.00000000e+00    0.00000000e+00    1.48538704e-08
4        1.50000000e-11    0.00000000e+00    0.00000000e+00    0.00000000e+00    0.00000000e+00    1.48538708e-08
5        3.10000000e-11    0.00000000e+00    0.00000000e+00    0.00000000e+00    0.00000000e+00    1.48538712e-08
6        6.30000000e-11    0.00000000e+00    0.00000000e+00    0.00000000e+00    0.00000000e+00    1.48538712e-08
7        1.27000000e-10    0.00000000e+00    0.00000000e+00    0.00000000e+00    0.00000000e+00    1.48538711e-08
8        2.55000000e-10    0.00000000e+00    0.00000000e+00    0.00000000e+00    0.00000000e+00    1.48538715e-08
9        5.11000000e-10    0.00000000e+00    0.00000000e+00    0.00000000e+00    0.00000000e+00    1.48538713e-08
10       1.02300000e-09    0.00000000e+00    0.00000000e+00    0.00000000e+00    0.00000000e+00    1.48538711e-08
11       2.04700000e-09    0.00000000e+00    0.00000000e+00    0.00000000e+00    0.00000000e+00    1.48538712e-08
12       2.50000000e-09    0.00000000e+00    0.00000000e+00    0.00000000e+00    0.00000000e+00    1.48538713e-08
13       2.51304999e-09    0.00000000e+00    0.00000000e+00    0.00000000e+00    4.69799676e-02    2.21714356e-04
14       2.52328783e-09    0.00000000e+00    0.00000000e+00    0.00000000e+00    8.38362027e-02    4.00107345e-04
15       2.53352568e-09    0.00000000e+00    0.00000000e+00    0.00000000e+00    1.20692438e-01    5.62871766e-04
16       2.55400136e-09    0.00000000e+00    0.00000000e+00    0.00000000e+00    1.94404908e-01    7.42935926e-04
17       2.59495274e-09    0.00000000e+00    0.00000000e+00    0.00000000e+00    3.41829849e-01    7.75464361e-04
18       2.63590411e-09    0.00000000e+00    0.00000000e+00    0.00000000e+00    4.89254789e-01    8.03042384e-04
19       2.71780685e-09    0.00000000e+00    0.00000000e+00    0.00000000e+00    7.84104670e-01   -2.09105115e-04
20       2.72476242e-09    0.00000000e+00    0.00000000e+00    0.00000000e+00    8.09144710e-01   -5.28352257e-04
21       2.73867355e-09    0.00000000e+00    0.00000000e+00    0.00000000e+00    8.59224790e-01   -1.39824144e-03
22       2.75258469e-09    0.00000000e+00    0.00000000e+00    0.00000000e+00    9.09304869e-01   -2.69360270e-03
23       2.76649582e-09    0.00000000e+00    0.00000000e+00    0.00000000e+00    9.59384949e-01   -4.35954455e-03
24       2.78040695e-09    0.00000000e+00    0.00000000e+00    0.00000000e+00    1.00946503e+00   -6.42265065e-03
25       2.79431809e-09    0.00000000e+00    0.00000000e+00    0.00000000e+00    1.05954511e+00   -8.95883490e-03
26       2.80822922e-09    0.00000000e+00    0.00000000e+00    0.00000000e+00    1.10962519e+00   -1.20926345e-02
27       2.82214035e-09    0.00000000e+00    0.00000000e+00    0.00000000e+00    1.15970527e+00   -1.60989068e-02
28       2.83605149e-09    0.00000000e+00    0.00000000e+00    0.00000000e+00    1.20978535e+00   -2.14292853e-02
29       2.84996262e-09    0.00000000e+00    0.00000000e+00    0.00000000e+00    1.25986543e+00   -2.90363082e-02
30       2.86387375e-09    0.00000000e+00    0.00000000e+00    0.00000000e+00    1.30994551e+00   -4.16470727e-02
31       2.87778488e-09    0.00000000e+00    0.00000000e+00    0.00000000e+00    1.36002559e+00   -6.42739106e-02
32       2.89169602e-09    0.00000000e+00    0.00000000e+00    0.00000000e+00    1.41010566e+00   -9.58361041e-02
33       2.90560715e-09    0.00000000e+00    0.00000000e+00    0.00000000e+00    1.46018574e+00   -1.20690838e-01
34       2.90773727e-09    0.00000000e+00    0.00000000e+00    0.00000000e+00    1.46785419e+00   -1.22103629e-01
35       2.91199752e-09    0.00000000e+00    0.00000000e+00    0.00000000e+00    1.48319107e+00   -1.22510165e-01
36       2.91625777e-09    0.00000000e+00    0.00000000e+00    0.00000000e+00    1.49852796e+00   -1.18177844e-01
37       2.92051801e-09    0.00000000e+00    0.00000000e+00    0.00000000e+00    1.51386485e+00   -1.09029338e-01
38       2.92477826e-09    0.00000000e+00    0.00000000e+00    0.00000000e+00    1.52920174e+00   -9.52813060e-02
39       2.92903851e-09    0.00000000e+00    0.00000000e+00    0.00000000e+00    1.54453862e+00   -7.72826316e-02
40       2.93329875e-09    0.00000000e+00    0.00000000e+00    0.00000000e+00    1.55987551e+00   -5.53380511e-02
41       2.93755900e-09    0.00000000e+00    0.00000000e+00    0.00000000e+00    1.57521240e+00   -3.01243294e-02
42       2.94181925e-09    0.00000000e+00    0.00000000e+00    0.00000000e+00    1.59054928e+00   -2.14022918e-03
43       2.95033974e-09    0.00000000e+00    0.00000000e+00    0.00000000e+00    1.62122306e+00    6.01916194e-02
44       2.95886023e-09    0.00000000e+00    0.00000000e+00    0.00000000e+00    1.65189683e+00    1.28867607e-01
45       2.96738072e-09    0.00000000e+00    0.00000000e+00    0.00000000e+00    1.68257060e+00    2.01818856e-01
46       2.98442171e-09    0.00000000e+00    0.00000000e+00    0.00000000e+00    1.74391815e+00    3.54820888e-01
47       3.00000000e-09    0.00000000e+00    0.00000000e+00    0.00000000e+00    1.80000000e+00    4.99401127e-01
48       3.00111368e-09    0.00000000e+00    0.00000000e+00    0.00000000e+00    1.80000000e+00    5.09691181e-01
49       3.00211600e-09    0.00000000e+00    0.00000000e+00    0.00000000e+00    1.80000000e+00    5.19001342e-01
50       3.00412063e-09    0.00000000e+00    0.00000000e+00    0.00000000e+00    1.80000000e+00    5.37708929e-01
51       3.00812989e-09    0.00000000e+00    0.00000000e+00    0.00000000e+00    1.80000000e+00    5.75492783e-01
52       3.01614841e-09    0.00000000e+00    0.00000000e+00    0.00000000e+00    1.80000000e+00    6.52050373e-01
53       3.03218545e-09    0.00000000e+00    0.00000000e+00    0.00000000e+00    1.80000000e+00    8.08142883e-01
54       3.04822249e-09    0.00000000e+00    0.00000000e+00    0.00000000e+00    1.80000000e+00    9.69998893e-01
55       3.06425954e-09    0.00000000e+00    0.00000000e+00    0.00000000e+00    1.80000000e+00    1.14879640e+00
56       3.08029658e-09    0.00000000e+00    0.00000000e+00    0.00000000e+00    1.80000000e+00    1.34442385e+00
57       3.08311887e-09    0.00000000e+00    0.00000000e+00    0.00000000e+00    1.80000000e+00    1.37549604e+00
58       3.08594117e-09    0.00000000e+00    0.00000000e+00    0.00000000e+00    1.80000000e+00    1.40506539e+00
59       3.09158577e-09    0.00000000e+00    0.00000000e+00    0.00000000e+00    1.80000000e+00    1.45854764e+00
60       3.09723036e-09    0.00000000e+00    0.00000000e+00    0.00000000e+00    1.80000000e+00    1.50516710e+00
61       3.10287495e-09    0.00000000e+00    0.00000000e+00    0.00000000e+00    1.80000000e+00    1.54568830e+00
62       3.11416414e-09    0.00000000e+00    0.00000000e+00    0.00000000e+00    1.80000000e+00    1.61128920e+00
63       3.12545333e-09    0.00000000e+00    0.00000000e+00    0.00000000e+00    1.80000000e+00    1.66013558e+00
64       3.13674252e-09    0.00000000e+00    0.00000000e+00    0.00000000e+00    1.80000000e+00    1.69619174e+00
65       3.14803171e-09    0.00000000e+00    0.00000000e+00    0.00000000e+00    1.80000000e+00    1.72266282e+00
66       3.15932090e-09    0.00000000e+00    0.00000000e+00    0.00000000e+00    1.80000000e+00    1.74203043e+00
67       3.18189927e-09    0.00000000e+00    0.00000000e+00    0.00000000e+00    1.80000000e+00    1.76698042e+00
68       3.22705603e-09    0.00000000e+00    0.00000000e+00    0.00000000e+00    1.80000000e+00    1.78849313e+00
69       3.27221278e-09    0.00000000e+00    0.00000000e+00    0.00000000e+00    1.80000000e+00    1.79430580e+00
70       3.31736953e-09    0.00000000e+00    0.00000000e+00    0.00000000e+00    1.80000000e+00    1.79646536e+00
71       3.36252629e-09    0.00000000e+00    0.00000000e+00    0.00000000e+00    1.80000000e+00    1.79752880e+00
72       3.45283979e-09    0.00000000e+00    0.00000000e+00    0.00000000e+00    1.80000000e+00    1.79857294e+00
73       3.63346681e-09    0.00000000e+00    0.00000000e+00    0.00000000e+00    1.80000000e+00    1.79924875e+00
74       3.81409382e-09    0.00000000e+00    0.00000000e+00    0.00000000e+00    1.80000000e+00    1.79941169e+00
75       4.17534785e-09    0.00000000e+00    0.00000000e+00    0.00000000e+00    1.80000000e+00    1.79957350e+00
76       4.53660187e-09    0.00000000e+00    0.00000000e+00    0.00000000e+00    1.80000000e+00    1.79965960e+00
77       5.25910993e-09    0.00000000e+00    0.00000000e+00    0.00000000e+00    1.80000000e+00    1.79976760e+00
78       5.50000000e-09    0.00000000e+00    0.00000000e+00    0.00000000e+00    1.80000000e+00    1.79978615e+00
79       5.51284416e-09    0.00000000e+00    0.00000000e+00    4.62389790e-02    1.80000000e+00    1.80015336e+00
80       5.52294892e-09    0.00000000e+00    0.00000000e+00    8.26160977e-02    1.80000000e+00    1.80022520e+00
81       5.54315843e-09    0.00000000e+00    0.00000000e+00    1.55370335e-01    1.80000000e+00    1.80015703e+00
82       5.58357745e-09    0.00000000e+00    0.00000000e+00    3.00878810e-01    1.80000000e+00    1.79989670e+00
83       5.62399647e-09    0.00000000e+00    0.00000000e+00    4.46387285e-01    1.80000000e+00    1.80001976e+00
84       5.66441549e-09    0.00000000e+00    0.00000000e+00    5.91895760e-01    1.80000000e+00    1.80026143e+00
85       5.74525353e-09    0.00000000e+00    0.00000000e+00    8.82912710e-01    1.80000000e+00    1.80000407e+00
86       5.82609157e-09    0.00000000e+00    0.00000000e+00    1.17392966e+00    1.80000000e+00    1.79958194e+00
87       5.98776766e-09    0.00000000e+00    0.00000000e+00    1.75596356e+00    1.80000000e+00    1.79980302e+00
88       6.00000000e-09    0.00000000e+00    0.00000000e+00    1.80000000e+00    1.80000000e+00    1.79978070e+00
89       6.01223234e-09    0.00000000e+00    0.00000000e+00    1.80000000e+00    1.80000000e+00    1.79906164e+00
90       6.02446469e-09    0.00000000e+00    0.00000000e+00    1.80000000e+00    1.80000000e+00    1.79900358e+00
91       6.03669703e-09    0.00000000e+00    0.00000000e+00    1.80000000e+00    1.80000000e+00    1.79910113e+00
92       6.06116172e-09    0.00000000e+00    0.00000000e+00    1.80000000e+00    1.80000000e+00    1.79949930e+00
93       6.11009110e-09    0.00000000e+00    0.00000000e+00    1.80000000e+00    1.80000000e+00    1.79980234e+00
94       6.15902048e-09    0.00000000e+00    0.00000000e+00    1.80000000e+00    1.80000000e+00    1.79982638e+00
95       6.25687923e-09    0.00000000e+00    0.00000000e+00    1.80000000e+00    1.80000000e+00    1.79983919e+00
96       6.45259674e-09    0.00000000e+00    0.00000000e+00    1.80000000e+00    1.80000000e+00    1.79984388e+00
97       6.84403176e-09    0.00000000e+00    0.00000000e+00    1.80000000e+00    1.80000000e+00    1.79986362e+00
98       7.62690179e-09    0.00000000e+00    0.00000000e+00    1.80000000e+00    1.80000000e+00    1.79988460e+00
99       8.50000000e-09    0.00000000e+00    0.00000000e+00    1.80000000e+00    1.80000000e+00    1.79990670e+00
100      8.51313924e-09    0.00000000e+00    0.00000000e+00    1.80000000e+00    1.75269873e+00    1.79915941e+00
101      8.52355030e-09    0.00000000e+00    0.00000000e+00    1.80000000e+00    1.71521891e+00    1.79910167e+00
102      8.53396136e-09    0.00000000e+00    0.00000000e+00    1.80000000e+00    1.67773909e+00    1.79917223e+00
103      8.55478349e-09    0.00000000e+00    0.00000000e+00    1.80000000e+00    1.60277945e+00    1.79949915e+00
104      8.59642773e-09    0.00000000e+00    0.00000000e+00    1.80000000e+00    1.45286016e+00    1.79978212e+00
105      8.67971622e-09    0.00000000e+00    0.00000000e+00    1.80000000e+00    1.15302160e+00    1.79981335e+00
106      8.76300471e-09    0.00000000e+00    0.00000000e+00    1.80000000e+00    8.53183031e-01    1.79977610e+00
107      8.78930539e-09    0.00000000e+00    0.00000000e+00    1.80000000e+00    7.58500609e-01    1.79978483e+00
108      8.80002678e-09    0.00000000e+00    0.00000000e+00    1.80000000e+00    7.19903582e-01    1.79982018e+00
109      8.81074818e-09    0.00000000e+00    0.00000000e+00    1.80000000e+00    6.81306555e-01    1.79988552e+00
110      8.83219097e-09    0.00000000e+00    0.00000000e+00    1.80000000e+00    6.04112500e-01    1.80000459e+00
111      8.85148949e-09    0.00000000e+00    0.00000000e+00    1.80000000e+00    5.34637851e-01    1.80016482e+00
112      8.86885815e-09    0.00000000e+00    0.00000000e+00    1.80000000e+00    4.72110667e-01    1.80029461e+00
113      8.88622681e-09    0.00000000e+00    0.00000000e+00    1.80000000e+00    4.09583482e-01    1.80037444e+00
114      8.90359547e-09    0.00000000e+00    0.00000000e+00    1.80000000e+00    3.47056298e-01    1.80038758e+00
115      8.91775814e-09    0.00000000e+00    0.00000000e+00    1.80000000e+00    2.96070707e-01    1.80035342e+00
116      8.93192080e-09    0.00000000e+00    0.00000000e+00    1.80000000e+00    2.45085116e-01    1.80029448e+00
117      8.96024613e-09    0.00000000e+00    0.00000000e+00    1.80000000e+00    1.43113934e-01    1.80016574e+00
118      9.00000000e-09    0.00000000e+00    0.00000000e+00    1.80000000e+00    0.00000000e+00    1.80001401e+00
119      9.00566507e-09    0.00000000e+00    0.00000000e+00    1.80000000e+00    0.00000000e+00    1.80016863e+00
120      9.01133013e-09    0.00000000e+00    0.00000000e+00    1.80000000e+00    0.00000000e+00    1.80023465e+00
121      9.01699520e-09    0.00000000e+00    0.00000000e+00    1.80000000e+00    0.00000000e+00    1.80026862e+00
122      9.02832533e-09    0.00000000e+00    0.00000000e+00    1.80000000e+00    0.00000000e+00    1.80022692e+00
123      9.05098559e-09    0.00000000e+00    0.00000000e+00    1.80000000e+00    0.00000000e+00    1.80007037e+00
124      9.09630612e-09    0.00000000e+00    0.00000000e+00    1.80000000e+00    0.00000000e+00    1.79993233e+00
125      9.14162664e-09    0.00000000e+00    0.00000000e+00    1.80000000e+00    0.00000000e+00    1.79991798e+00
126      9.23226769e-09    0.00000000e+00    0.00000000e+00    1.80000000e+00    0.00000000e+00    1.79991639e+00
127      9.32290874e-09    0.00000000e+00    0.00000000e+00    1.80000000e+00    0.00000000e+00    1.79991834e+00
128      9.50419084e-09    0.00000000e+00    0.00000000e+00    1.80000000e+00    0.00000000e+00    1.79992070e+00
129      9.86675505e-09    0.00000000e+00    0.00000000e+00    1.80000000e+00    0.00000000e+00    1.79992523e+00
130      1.05918835e-08    0.00000000e+00    0.00000000e+00    1.80000000e+00    0.00000000e+00    1.79993280e+00
131      1.15000000e-08    0.00000000e+00    0.00000000e+00    1.80000000e+00    0.00000000e+00    1.79994053e+00
132      1.15130233e-08    0.00000000e+00    4.68838261e-02    1.80000000e+00    0.00000000e+00    1.80026467e+00
133      1.15232392e-08    0.00000000e+00    8.36612530e-02    1.80000000e+00    0.00000000e+00    1.80049805e+00
134      1.15334552e-08    0.00000000e+00    1.20438680e-01    1.80000000e+00    0.00000000e+00    1.80070548e+00
135      1.15538871e-08    0.00000000e+00    1.93993534e-01    1.80000000e+00    0.00000000e+00    1.80093579e+00
136      1.15947509e-08    0.00000000e+00    3.41103242e-01    1.80000000e+00    0.00000000e+00    1.80100306e+00
137      1.16356147e-08    0.00000000e+00    4.88212950e-01    1.80000000e+00    0.00000000e+00    1.80103048e+00
138      1.17173423e-08    0.00000000e+00    7.82432366e-01    1.80000000e+00    0.00000000e+00    1.79960413e+00
139      1.17237574e-08    0.00000000e+00    8.05526559e-01    1.80000000e+00    0.00000000e+00    1.79925568e+00
140      1.17365875e-08    0.00000000e+00    8.51714946e-01    1.80000000e+00    0.00000000e+00    1.79832134e+00
141      1.17494176e-08    0.00000000e+00    8.97903333e-01    1.80000000e+00    0.00000000e+00    1.79694932e+00
142      1.17622477e-08    0.00000000e+00    9.44091720e-01    1.80000000e+00    0.00000000e+00    1.79521684e+00
143      1.17750778e-08    0.00000000e+00    9.90280107e-01    1.80000000e+00    0.00000000e+00    1.79317093e+00
144      1.17879079e-08    0.00000000e+00    1.03646849e+00    1.80000000e+00    0.00000000e+00    1.79086294e+00
145      1.18007380e-08    0.00000000e+00    1.08265688e+00    1.80000000e+00    0.00000000e+00    1.78835773e+00
146      1.18135681e-08    0.00000000e+00    1.12884527e+00    1.80000000e+00    0.00000000e+00    1.78560633e+00
147      1.18263982e-08    0.00000000e+00    1.17503365e+00    1.80000000e+00    0.00000000e+00    1.78226255e+00
148      1.18392283e-08    0.00000000e+00    1.22122204e+00    1.80000000e+00    0.00000000e+00    1.77727978e+00
149      1.18520585e-08    0.00000000e+00    1.26741043e+00    1.80000000e+00    0.00000000e+00    1.76682011e+00
150      1.18636055e-08    0.00000000e+00    1.30897998e+00    1.80000000e+00    0.00000000e+00    1.74708090e+00
151      1.18751526e-08    0.00000000e+00    1.35054953e+00    1.80000000e+00    0.00000000e+00    1.72038278e+00
152      1.18866997e-08    0.00000000e+00    1.39211907e+00    1.80000000e+00    0.00000000e+00    1.69783808e+00
153      1.18982468e-08    0.00000000e+00    1.43368862e+00    1.80000000e+00    0.00000000e+00    1.69109690e+00
154      1.19086392e-08    0.00000000e+00    1.47110122e+00    1.80000000e+00    0.00000000e+00    1.70025867e+00
155      1.19179924e-08    0.00000000e+00    1.50477255e+00    1.80000000e+00    0.00000000e+00    1.71528522e+00
156      1.19273455e-08    0.00000000e+00    1.53844388e+00    1.80000000e+00    0.00000000e+00    1.73208373e+00
157      1.19366987e-08    0.00000000e+00    1.57211522e+00    1.80000000e+00    0.00000000e+00    1.74784523e+00
158      1.19460518e-08    0.00000000e+00    1.60578655e+00    1.80000000e+00    0.00000000e+00    1.76118729e+00
159      1.19554050e-08    0.00000000e+00    1.63945789e+00    1.80000000e+00    0.00000000e+00    1.77176080e+00
160      1.19741113e-08    0.00000000e+00    1.70680055e+00    1.80000000e+00    0.00000000e+00    1.78587944e+00
161      1.19928176e-08    0.00000000e+00    1.77414322e+00    1.80000000e+00    0.00000000e+00    1.79320540e+00
162      1.20000000e-08    0.00000000e+00    1.80000000e+00    1.80000000e+00    0.00000000e+00    1.79482207e+00
163      1.20018706e-08    0.00000000e+00    1.80000000e+00    1.80000000e+00    0.00000000e+00    1.79483085e+00
164      1.20056119e-08    0.00000000e+00    1.80000000e+00    1.80000000e+00    0.00000000e+00    1.79502384e+00
165      1.20130944e-08    0.00000000e+00    1.80000000e+00    1.80000000e+00    0.00000000e+00    1.79560689e+00
166      1.20280594e-08    0.00000000e+00    1.80000000e+00    1.80000000e+00    0.00000000e+00    1.79713734e+00
167      1.20579895e-08    0.00000000e+00    1.80000000e+00    1.80000000e+00    0.00000000e+00    1.79914383e+00
168      1.20879196e-08    0.00000000e+00    1.80000000e+00    1.80000000e+00    0.00000000e+00    1.79975192e+00
169      1.21477797e-08    0.00000000e+00    1.80000000e+00    1.80000000e+00    0.00000000e+00    1.79996267e+00
170      1.22076399e-08    0.00000000e+00    1.80000000e+00    1.80000000e+00    0.00000000e+00    1.79997042e+00
171      1.23273602e-08    0.00000000e+00    1.80000000e+00    1.80000000e+00    0.00000000e+00    1.79998805e+00
172      1.25668008e-08    0.00000000e+00    1.80000000e+00    1.80000000e+00    0.00000000e+00    1.79999705e+00
173      1.30456820e-08    0.00000000e+00    1.80000000e+00    1.80000000e+00    0.00000000e+00    1.79999847e+00
