Index       TIME              V(IN)            V(OUT)      
0        0.00000000e+00    0.00000000e+00    1.80000238e+00
1        1.00000000e-12    0.00000000e+00    1.80000236e+00
2        3.00000000e-12    0.00000000e+00    1.80000232e+00
3        7.00000000e-12    0.00000000e+00    1.80000223e+00
4        1.50000000e-11    0.00000000e+00    1.80000207e+00
5        3.10000000e-11    0.00000000e+00    1.80000179e+00
6        6.30000000e-11    0.00000000e+00    1.80000132e+00
7        1.27000000e-10    0.00000000e+00    1.80000071e+00
8        2.55000000e-10    0.00000000e+00    1.80000017e+00
9        5.11000000e-10    0.00000000e+00    1.79999997e+00
10       1.02300000e-09    0.00000000e+00    1.79999999e+00
11       1.50000000e-09    0.00000000e+00    1.79999998e+00
12       1.50312500e-09    1.12500000e-02    1.80630417e+00
13       1.50937500e-09    3.37500000e-02    1.81786377e+00
14       1.51562500e-09    5.62500000e-02    1.82907822e+00
15       1.52812500e-09    1.01250000e-01    1.84978544e+00
16       1.55312500e-09    1.91250000e-01    1.88596794e+00
17       1.57812500e-09    2.81250000e-01    1.91761618e+00
18       1.60312500e-09    3.71250000e-01    1.94756654e+00
19       1.65312500e-09    5.51250000e-01    2.00996986e+00
20       1.70312500e-09    7.31250000e-01    2.06817382e+00
21       1.71122845e-09    7.60422436e-01    2.07533646e+00
22       1.71933191e-09    7.89594873e-01    2.08182406e+00
23       1.73553882e-09    8.47939746e-01    2.09041216e+00
24       1.75174573e-09    9.06284619e-01    2.09202456e+00
25       1.76795264e-09    9.64629492e-01    2.08486121e+00
26       1.78415955e-09    1.02297436e+00    2.06635680e+00
27       1.80036645e-09    1.08131924e+00    2.03198725e+00
28       1.81657336e-09    1.13966411e+00    1.97232426e+00
29       1.83115958e-09    1.19217450e+00    1.88163413e+00
30       1.84315398e-09    1.23535433e+00    1.77173093e+00
31       1.85355856e-09    1.27281081e+00    1.65179073e+00
32       1.86396313e-09    1.31026728e+00    1.51532094e+00
33       1.87436771e-09    1.34772376e+00    1.36302760e+00
34       1.88477229e-09    1.38518023e+00    1.19586468e+00
35       1.89517686e-09    1.42263671e+00    1.01544896e+00
36       1.90558144e-09    1.46009318e+00    8.26231473e-01
37       1.91598602e-09    1.49754965e+00    6.43425093e-01
38       1.91757481e-09    1.50326933e+00    6.18200740e-01
39       1.91916361e-09    1.50898900e+00    5.94045064e-01
40       1.92234121e-09    1.52042835e+00    5.48956189e-01
41       1.92869640e-09    1.54330704e+00    4.70850451e-01
42       1.93505159e-09    1.56618573e+00    4.05080445e-01
43       1.94140679e-09    1.58906443e+00    3.48937187e-01
44       1.94776198e-09    1.61194312e+00    3.00617573e-01
45       1.95411717e-09    1.63482181e+00    2.59155998e-01
46       1.96047236e-09    1.65770051e+00    2.23614682e-01
47       1.96682755e-09    1.68057920e+00    1.93395172e-01
48       1.97318275e-09    1.70345789e+00    1.67753382e-01
49       1.97953794e-09    1.72633658e+00    1.46195726e-01
50       1.98589313e-09    1.74921528e+00    1.28081335e-01
51       1.99860352e-09    1.79497266e+00    1.00300622e-01
52       2.00000000e-09    1.80000000e+00    9.78358160e-02
53       2.00127104e-09    1.80000000e+00    9.34639104e-02
54       2.00241497e-09    1.80000000e+00    8.98507389e-02
55       2.00470284e-09    1.80000000e+00    8.29332087e-02
56       2.00927858e-09    1.80000000e+00    7.06269714e-02
57       2.01843006e-09    1.80000000e+00    5.10680536e-02
58       2.02758154e-09    1.80000000e+00    3.68892002e-02
59       2.03673301e-09    1.80000000e+00    2.66229328e-02
60       2.05503597e-09    1.80000000e+00    1.36076244e-02
61       2.09164188e-09    1.80000000e+00    2.90707208e-03
62       2.16485369e-09    1.80000000e+00   -3.95608566e-04
63       2.23074433e-09    1.80000000e+00    5.05721868e-05
64       2.29663496e-09    1.80000000e+00   -2.74768565e-06
65       2.36252560e-09    1.80000000e+00   -1.03505434e-06
66       2.49430687e-09    1.80000000e+00    1.31939850e-06
67       2.75786941e-09    1.80000000e+00   -1.38417363e-06
68       3.28499450e-09    1.80000000e+00    1.41472334e-06
69       4.33924466e-09    1.80000000e+00   -1.41924697e-06
70       4.50000000e-09    1.80000000e+00    1.47159736e-06
71       4.50312500e-09    1.78875000e+00   -5.34938117e-03
72       4.50937500e-09    1.76625000e+00   -1.35409263e-02
73       4.51562500e-09    1.74375000e+00   -2.08259629e-02
74       4.52812500e-09    1.69875000e+00   -3.12720472e-02
75       4.54062500e-09    1.65375000e+00   -3.79952628e-02
76       4.55312500e-09    1.60875000e+00   -4.25881269e-02
77       4.57812500e-09    1.51875000e+00   -4.88193307e-02
78       4.60312500e-09    1.42875000e+00   -5.33989206e-02
79       4.65312500e-09    1.24875000e+00   -6.33116775e-02
80       4.70312500e-09    1.06875000e+00   -7.85284666e-02
81       4.75312500e-09    8.88750000e-01   -1.05652625e-01
82       4.80312500e-09    7.08750000e-01   -1.48364114e-01
83       4.85312500e-09    5.28750000e-01   -1.99038975e-01
84       4.88772135e-09    4.04203132e-01   -2.31100838e-01
85       4.92231770e-09    2.79656264e-01   -2.53592169e-01
86       4.95691406e-09    1.55109397e-01   -2.51973514e-01
87       4.98711855e-09    4.63732359e-02   -2.14837019e-01
88       5.00000000e-09    0.00000000e+00   -1.84304371e-01
89       5.00151899e-09    0.00000000e+00   -1.77324390e-01
90       5.00287460e-09    0.00000000e+00   -1.71390255e-01
91       5.00558581e-09    0.00000000e+00   -1.59444376e-01
92       5.01100822e-09    0.00000000e+00   -1.35123837e-01
93       5.02185306e-09    0.00000000e+00   -8.48075607e-02
94       5.04354274e-09    0.00000000e+00    2.16415883e-02
95       5.06523241e-09    0.00000000e+00    1.35047703e-01
96       5.08692209e-09    0.00000000e+00    2.52832462e-01
97       5.13030144e-09    0.00000000e+00    4.97394938e-01
98       5.21706014e-09    0.00000000e+00    1.00002683e+00
99       5.24593728e-09    0.00000000e+00    1.15708064e+00
100      5.25804528e-09    0.00000000e+00    1.21761795e+00
101      5.27015328e-09    0.00000000e+00    1.27345184e+00
102      5.28226128e-09    0.00000000e+00    1.32313832e+00
103      5.29436927e-09    0.00000000e+00    1.36708087e+00
104      5.30647727e-09    0.00000000e+00    1.40620083e+00
105      5.31858527e-09    0.00000000e+00    1.44125189e+00
106      5.33069326e-09    0.00000000e+00    1.47291668e+00
107      5.35490926e-09    0.00000000e+00    1.52779394e+00
108      5.37912525e-09    0.00000000e+00    1.57348207e+00
109      5.40334125e-09    0.00000000e+00    1.61164946e+00
110      5.42755724e-09    0.00000000e+00    1.64359165e+00
111      5.45177324e-09    0.00000000e+00    1.67026632e+00
112      5.47598923e-09    0.00000000e+00    1.69253830e+00
113      5.50020522e-09    0.00000000e+00    1.71106951e+00
114      5.54863721e-09    0.00000000e+00    1.73945820e+00
115      5.64550119e-09    0.00000000e+00    1.77294462e+00
116      5.74236517e-09    0.00000000e+00    1.78803114e+00
117      5.83922915e-09    0.00000000e+00    1.79471907e+00
118      6.03295710e-09    0.00000000e+00    1.79934405e+00
119      6.22668506e-09    0.00000000e+00    1.79991376e+00
120      6.61414096e-09    0.00000000e+00    1.80002332e+00
121      7.00159687e-09    0.00000000e+00    1.79999039e+00
122      7.77650869e-09    0.00000000e+00    1.80000722e+00
123      8.50000000e-09    0.00000000e+00    1.79999402e+00
124      8.50312500e-09    1.12500000e-02    1.80630225e+00
125      8.50937500e-09    3.37500000e-02    1.81786199e+00
126      8.51562500e-09    5.62500000e-02    1.82907654e+00
127      8.52812500e-09    1.01250000e-01    1.84978395e+00
128      8.55312500e-09    1.91250000e-01    1.88596676e+00
129      8.57812500e-09    2.81250000e-01    1.91761523e+00
130      8.60312500e-09    3.71250000e-01    1.94756576e+00
131      8.65312500e-09    5.51250000e-01    2.00996932e+00
132      8.70312500e-09    7.31250000e-01    2.06817343e+00
133      8.71122845e-09    7.60422425e-01    2.07533608e+00
134      8.71933190e-09    7.89594850e-01    2.08182369e+00
135      8.73553881e-09    8.47939700e-01    2.09041182e+00
136      8.75174571e-09    9.06284550e-01    2.09202424e+00
137      8.76795261e-09    9.64629401e-01    2.08486092e+00
138      8.78415951e-09    1.02297425e+00    2.06635654e+00
139      8.80036642e-09    1.08131910e+00    2.03198703e+00
140      8.81657332e-09    1.13966395e+00    1.97232410e+00
141      8.83115953e-09    1.19217432e+00    1.88163406e+00
142      8.84315393e-09    1.23535416e+00    1.77173093e+00
143      8.85355851e-09    1.27281064e+00    1.65179077e+00
144      8.86396309e-09    1.31026712e+00    1.51532101e+00
145      8.87436767e-09    1.34772360e+00    1.36302770e+00
146      8.88477225e-09    1.38518009e+00    1.19586481e+00
147      8.89517682e-09    1.42263657e+00    1.01544910e+00
148      8.90558140e-09    1.46009305e+00    8.26231621e-01
149      8.91598598e-09    1.49754953e+00    6.43425211e-01
150      8.91757478e-09    1.50326921e+00    6.18200849e-01
151      8.91916358e-09    1.50898888e+00    5.94045165e-01
152      8.92234118e-09    1.52042823e+00    5.48956273e-01
153      8.92869637e-09    1.54330693e+00    4.70850510e-01
154      8.93505156e-09    1.56618563e+00    4.05080485e-01
155      8.94140676e-09    1.58906433e+00    3.48937213e-01
156      8.94776195e-09    1.61194303e+00    3.00617588e-01
157      8.95411715e-09    1.63482173e+00    2.59156004e-01
158      8.96047234e-09    1.65770042e+00    2.23614682e-01
159      8.96682753e-09    1.68057912e+00    1.93395167e-01
160      8.97318273e-09    1.70345782e+00    1.67753375e-01
161      8.97953792e-09    1.72633652e+00    1.46195717e-01
162      8.98589312e-09    1.74921522e+00    1.28081324e-01
163      8.99860350e-09    1.79497262e+00    1.00300610e-01
164      9.00000000e-09    1.80000000e+00    9.78357826e-02
165      9.00127104e-09    1.80000000e+00    9.34638774e-02
166      9.00241497e-09    1.80000000e+00    8.98507063e-02
167      9.00470284e-09    1.80000000e+00    8.29331770e-02
168      9.00927858e-09    1.80000000e+00    7.06269415e-02
169      9.01843006e-09    1.80000000e+00    5.10680277e-02
170      9.02758154e-09    1.80000000e+00    3.68891784e-02
171      9.03673302e-09    1.80000000e+00    2.66229149e-02
172      9.05503598e-09    1.80000000e+00    1.36076128e-02
173      9.09164190e-09    1.80000000e+00    2.90706799e-03
174      9.16485373e-09    1.80000000e+00   -3.95608378e-04
175      9.23074438e-09    1.80000000e+00    5.05722085e-05
176      9.29663504e-09    1.80000000e+00   -2.74769468e-06
177      9.36252569e-09    1.80000000e+00   -1.03505203e-06
178      9.49430699e-09    1.80000000e+00    1.31939713e-06
179      9.75786960e-09    1.80000000e+00   -1.38417251e-06
180      1.02849948e-08    1.80000000e+00    1.41472232e-06
181      1.05000000e-08    1.80000000e+00   -1.45169180e-06
182      1.05031250e-08    1.78875000e+00   -5.34942950e-03
183      1.05093750e-08    1.76625000e+00   -1.35408357e-02
184      1.05156250e-08    1.74375000e+00   -2.08258833e-02
185      1.05281250e-08    1.69875000e+00   -3.12720060e-02
186      1.05406250e-08    1.65375000e+00   -3.79952305e-02
187      1.05531250e-08    1.60875000e+00   -4.25881130e-02
188      1.05781250e-08    1.51875000e+00   -4.88193200e-02
189      1.06031250e-08    1.42875000e+00   -5.33989213e-02
190      1.06531250e-08    1.24875000e+00   -6.33116733e-02
191      1.07031250e-08    1.06875000e+00   -7.85284703e-02
192      1.07531250e-08    8.88750000e-01   -1.05652621e-01
193      1.08031250e-08    7.08750000e-01   -1.48364118e-01
194      1.08531250e-08    5.28750000e-01   -1.99038972e-01
195      1.08877214e-08    4.04203091e-01   -2.31100846e-01
196      1.09223177e-08    2.79656183e-01   -2.53592175e-01
197      1.09569141e-08    1.55109274e-01   -2.51973492e-01
198      1.09871186e-08    4.63731159e-02   -2.14836949e-01
199      1.10000000e-08    0.00000000e+00   -1.84304367e-01
200      1.10015190e-08    0.00000000e+00   -1.77324386e-01
201      1.10028746e-08    0.00000000e+00   -1.71390252e-01
202      1.10055858e-08    0.00000000e+00   -1.59444374e-01
203      1.10110082e-08    0.00000000e+00   -1.35123837e-01
204      1.10218531e-08    0.00000000e+00   -8.48075657e-02
205      1.10435427e-08    0.00000000e+00    2.16415729e-02
206      1.10652324e-08    0.00000000e+00    1.35047677e-01
207      1.10869221e-08    0.00000000e+00    2.52832424e-01
208      1.11303014e-08    0.00000000e+00    4.97394875e-01
209      1.12170601e-08    0.00000000e+00    1.00002673e+00
210      1.12459373e-08    0.00000000e+00    1.15708057e+00
211      1.12580453e-08    0.00000000e+00    1.21761790e+00
212      1.12701533e-08    0.00000000e+00    1.27345180e+00
213      1.12822613e-08    0.00000000e+00    1.32313829e+00
214      1.12943693e-08    0.00000000e+00    1.36708085e+00
215      1.13064773e-08    0.00000000e+00    1.40620082e+00
216      1.13185853e-08    0.00000000e+00    1.44125188e+00
217      1.13306933e-08    0.00000000e+00    1.47291668e+00
218      1.13549093e-08    0.00000000e+00    1.52779395e+00
219      1.13791253e-08    0.00000000e+00    1.57348209e+00
220      1.14033413e-08    0.00000000e+00    1.61164948e+00
221      1.14275573e-08    0.00000000e+00    1.64359166e+00
222      1.14517733e-08    0.00000000e+00    1.67026634e+00
223      1.14759893e-08    0.00000000e+00    1.69253832e+00
224      1.15002053e-08    0.00000000e+00    1.71106953e+00
225      1.15486372e-08    0.00000000e+00    1.73945821e+00
226      1.16455012e-08    0.00000000e+00    1.77294463e+00
227      1.17423652e-08    0.00000000e+00    1.78803115e+00
228      1.18392292e-08    0.00000000e+00    1.79471908e+00
229      1.20329572e-08    0.00000000e+00    1.79934405e+00
230      1.22266852e-08    0.00000000e+00    1.79991376e+00
231      1.26141412e-08    0.00000000e+00    1.80002332e+00
232      1.30015971e-08    0.00000000e+00    1.79999039e+00
233      1.37765091e-08    0.00000000e+00    1.80000722e+00
234      1.53263330e-08    0.00000000e+00    1.79999344e+00
235      1.78263330e-08    0.00000000e+00    1.80000620e+00
236      2.03263330e-08    0.00000000e+00    1.79999405e+00
237      2.28263330e-08    0.00000000e+00    1.80000569e+00
238      2.50000000e-08    0.00000000e+00    1.79999450e+00
End of Xyce(TM) Simulation
