Index       TIME              V(IN)            V(OUT)      
0        0.00000000e+00    0.00000000e+00    1.80000124e+00
1        1.00000000e-12    0.00000000e+00    1.80000119e+00
2        3.00000000e-12    0.00000000e+00    1.80000110e+00
3        7.00000000e-12    0.00000000e+00    1.80000093e+00
4        1.50000000e-11    0.00000000e+00    1.80000066e+00
5        3.10000000e-11    0.00000000e+00    1.80000032e+00
6        6.30000000e-11    0.00000000e+00    1.80000005e+00
7        1.27000000e-10    0.00000000e+00    1.79999998e+00
8        2.55000000e-10    0.00000000e+00    1.79999999e+00
9        5.11000000e-10    0.00000000e+00    1.79999998e+00
10       1.02300000e-09    0.00000000e+00    1.79999999e+00
11       1.50000000e-09    0.00000000e+00    1.79999998e+00
12       1.50312500e-09    1.12500000e-02    1.80521335e+00
13       1.50937500e-09    3.37500000e-02    1.81347566e+00
14       1.51562500e-09    5.62500000e-02    1.82084267e+00
15       1.52812500e-09    1.01250000e-01    1.83148949e+00
16       1.54062500e-09    1.46250000e-01    1.83858411e+00
17       1.56562500e-09    2.36250000e-01    1.84830895e+00
18       1.59062500e-09    3.26250000e-01    1.85611858e+00
19       1.64062500e-09    5.06250000e-01    1.87588061e+00
20       1.69062500e-09    6.86250000e-01    1.89626371e+00
21       1.69687500e-09    7.08750000e-01    1.89702758e+00
22       1.70937500e-09    7.53750000e-01    1.89510835e+00
23       1.71331472e-09    7.67933008e-01    1.89251228e+00
24       1.71725445e-09    7.82116016e-01    1.88937663e+00
25       1.72513390e-09    8.10482033e-01    1.87956033e+00
26       1.73301335e-09    8.38848049e-01    1.86401635e+00
27       1.74089280e-09    8.67214065e-01    1.84094390e+00
28       1.74877224e-09    8.95580082e-01    1.80716903e+00
29       1.75665169e-09    9.23946098e-01    1.76632732e+00
30       1.76453114e-09    9.52312114e-01    1.70257651e+00
31       1.77140409e-09    9.77054711e-01    1.62231578e+00
32       1.77758974e-09    9.99323049e-01    1.53575267e+00
33       1.78377539e-09    1.02159139e+00    1.43670287e+00
34       1.78996103e-09    1.04385972e+00    1.32520411e+00
35       1.79614668e-09    1.06612806e+00    1.20126272e+00
36       1.80233233e-09    1.08839640e+00    1.06513867e+00
37       1.80851798e-09    1.11066474e+00    9.17446451e-01
38       1.81470363e-09    1.13293307e+00    7.59477104e-01
39       1.82088928e-09    1.15520141e+00    5.93890383e-01
40       1.82707493e-09    1.17746975e+00    4.28196635e-01
41       1.82816321e-09    1.18138756e+00    4.00436013e-01
42       1.83033978e-09    1.18922319e+00    3.48171268e-01
43       1.83469290e-09    1.20489445e+00    2.61532480e-01
44       1.83861072e-09    1.21899858e+00    2.01805748e-01
45       1.84252853e-09    1.23310271e+00    1.55288092e-01
46       1.84644635e-09    1.24720685e+00    1.19192330e-01
47       1.85036416e-09    1.26131098e+00    9.15077763e-02
48       1.85428198e-09    1.27541511e+00    7.05752727e-02
49       1.85819979e-09    1.28951924e+00    5.49601758e-02
50       1.86211760e-09    1.30362338e+00    4.34524816e-02
51       1.86995323e-09    1.33183164e+00    2.87227121e-02
52       1.88562449e-09    1.38824817e+00    1.66268128e-02
53       1.91696701e-09    1.50108123e+00    1.23188810e-02
54       1.94411434e-09    1.59881162e+00    1.15580201e-02
55       1.97126167e-09    1.69654202e+00    1.05300220e-02
56       1.99840900e-09    1.79427241e+00    9.84563472e-03
57       2.00000000e-09    1.80000000e+00    9.80704938e-03
58       2.00159100e-09    1.80000000e+00    7.89161873e-03
59       2.00318199e-09    1.80000000e+00    6.37854672e-03
60       2.00636399e-09    1.80000000e+00    3.93354438e-03
61       2.01272797e-09    1.80000000e+00    1.40191190e-03
62       2.02545594e-09    1.80000000e+00    3.62291636e-05
63       2.05091188e-09    1.80000000e+00   -1.19512691e-05
64       2.07636783e-09    1.80000000e+00    4.42070899e-06
65       2.12727971e-09    1.80000000e+00   -2.66194989e-06
66       2.22910348e-09    1.80000000e+00    2.09832654e-06
67       2.43275101e-09    1.80000000e+00   -1.85025098e-06
68       2.84004608e-09    1.80000000e+00    1.74805764e-06
69       3.65463621e-09    1.80000000e+00   -1.68882409e-06
70       4.50000000e-09    1.80000000e+00    1.64686922e-06
71       4.50312500e-09    1.78875000e+00   -3.49805480e-03
72       4.50937500e-09    1.76625000e+00   -6.79777843e-03
73       4.51500000e-09    1.74600000e+00   -8.33787113e-03
74       4.52062500e-09    1.72575000e+00   -9.41066027e-03
75       4.53187500e-09    1.68525000e+00   -1.01668299e-02
76       4.55437500e-09    1.60425000e+00   -1.08017350e-02
77       4.57687500e-09    1.52325000e+00   -1.15636457e-02
78       4.62187500e-09    1.36125000e+00   -1.37319820e-02
79       4.71187500e-09    1.03725000e+00   -2.46241721e-02
80       4.80187500e-09    7.13250000e-01   -4.75199156e-02
81       4.82437500e-09    6.32250000e-01   -4.08865593e-02
82       4.83341136e-09    5.99719100e-01   -3.41642446e-02
83       4.84244772e-09    5.67188201e-01   -2.43616620e-02
84       4.86052044e-09    5.02126401e-01    1.36476120e-02
85       4.87678589e-09    4.43570782e-01    8.05306984e-02
86       4.89001689e-09    3.95939201e-01    1.66367884e-01
87       4.90173764e-09    3.53744490e-01    2.62390502e-01
88       4.91345839e-09    3.11549778e-01    3.77878002e-01
89       4.92517915e-09    2.69355067e-01    5.13734638e-01
90       4.93689990e-09    2.27160356e-01    6.70406396e-01
91       4.94862065e-09    1.84965645e-01    8.47361978e-01
92       4.96034141e-09    1.42770933e-01    1.04176934e+00
93       4.97206216e-09    1.00576222e-01    1.23960472e+00
94       4.97372258e-09    9.45987244e-02    1.26581836e+00
95       4.97704341e-09    8.26437292e-02    1.31511826e+00
96       4.98368507e-09    5.87337387e-02    1.39869717e+00
97       4.99032674e-09    3.48237483e-02    1.46555282e+00
98       4.99696840e-09    1.09137579e-02    1.52022850e+00
99       5.00000000e-09    0.00000000e+00    1.54193156e+00
100      5.00066417e-09    0.00000000e+00    1.54754710e+00
101      5.00124446e-09    0.00000000e+00    1.55232277e+00
102      5.00240503e-09    0.00000000e+00    1.56167768e+00
103      5.00472619e-09    0.00000000e+00    1.57936033e+00
104      5.00936850e-09    0.00000000e+00    1.61098843e+00
105      5.01401081e-09    0.00000000e+00    1.63819370e+00
106      5.01865312e-09    0.00000000e+00    1.66158476e+00
107      5.02793773e-09    0.00000000e+00    1.69907250e+00
108      5.03722235e-09    0.00000000e+00    1.72660305e+00
109      5.04650697e-09    0.00000000e+00    1.74673693e+00
110      5.05579159e-09    0.00000000e+00    1.76141021e+00
111      5.06507621e-09    0.00000000e+00    1.77207512e+00
112      5.08364545e-09    0.00000000e+00    1.78566223e+00
113      5.12078392e-09    0.00000000e+00    1.79690231e+00
114      5.19506087e-09    0.00000000e+00    1.80042550e+00
115      5.26191013e-09    0.00000000e+00    1.79993612e+00
116      5.32875939e-09    0.00000000e+00    1.80000515e+00
117      5.39560864e-09    0.00000000e+00    1.79999932e+00
118      5.52930716e-09    0.00000000e+00    1.80000019e+00
119      5.79670418e-09    0.00000000e+00    1.79999988e+00
120      6.33149823e-09    0.00000000e+00    1.80000004e+00
121      7.40108633e-09    0.00000000e+00    1.79999994e+00
122      8.50000000e-09    0.00000000e+00    1.80000001e+00
123      8.50312500e-09    1.12500000e-02    1.80521349e+00
124      8.50937500e-09    3.37500000e-02    1.81347577e+00
125      8.51562500e-09    5.62500000e-02    1.82084276e+00
126      8.52812500e-09    1.01250000e-01    1.83148955e+00
127      8.54062500e-09    1.46250000e-01    1.83858414e+00
128      8.56562500e-09    2.36250000e-01    1.84830896e+00
129      8.59062500e-09    3.26250000e-01    1.85611859e+00
130      8.64062500e-09    5.06250000e-01    1.87588061e+00
131      8.69062500e-09    6.86250000e-01    1.89626371e+00
132      8.69687500e-09    7.08750000e-01    1.89702758e+00
133      8.70937500e-09    7.53750000e-01    1.89510835e+00
134      8.71331472e-09    7.67933008e-01    1.89251228e+00
135      8.71725445e-09    7.82116016e-01    1.88937663e+00
136      8.72513390e-09    8.10482033e-01    1.87956033e+00
137      8.73301335e-09    8.38848049e-01    1.86401635e+00
138      8.74089280e-09    8.67214065e-01    1.84094390e+00
139      8.74877224e-09    8.95580082e-01    1.80716903e+00
140      8.75665169e-09    9.23946098e-01    1.76632732e+00
141      8.76453114e-09    9.52312114e-01    1.70257651e+00
142      8.77140409e-09    9.77054712e-01    1.62231578e+00
143      8.77758974e-09    9.99323049e-01    1.53575267e+00
144      8.78377539e-09    1.02159139e+00    1.43670287e+00
145      8.78996103e-09    1.04385972e+00    1.32520411e+00
146      8.79614668e-09    1.06612806e+00    1.20126272e+00
147      8.80233233e-09    1.08839640e+00    1.06513867e+00
148      8.80851798e-09    1.11066474e+00    9.17446450e-01
149      8.81470363e-09    1.13293307e+00    7.59477103e-01
150      8.82088928e-09    1.15520141e+00    5.93890382e-01
151      8.82707493e-09    1.17746975e+00    4.28196634e-01
152      8.82816321e-09    1.18138756e+00    4.00436012e-01
153      8.83033978e-09    1.18922319e+00    3.48171267e-01
154      8.83469290e-09    1.20489445e+00    2.61532479e-01
155      8.83861072e-09    1.21899858e+00    2.01805748e-01
156      8.84252853e-09    1.23310271e+00    1.55288093e-01
157      8.84644635e-09    1.24720685e+00    1.19192330e-01
158      8.85036416e-09    1.26131098e+00    9.15077765e-02
159      8.85428198e-09    1.27541511e+00    7.05752730e-02
160      8.85819979e-09    1.28951924e+00    5.49601761e-02
161      8.86211760e-09    1.30362338e+00    4.34524818e-02
162      8.86995323e-09    1.33183164e+00    2.87227123e-02
163      8.88562449e-09    1.38824817e+00    1.66268129e-02
164      8.91696701e-09    1.50108123e+00    1.23188810e-02
165      8.94411434e-09    1.59881162e+00    1.15580201e-02
166      8.97126167e-09    1.69654202e+00    1.05300220e-02
167      8.99840900e-09    1.79427241e+00    9.84563473e-03
168      9.00000000e-09    1.80000000e+00    9.80704938e-03
169      9.00159100e-09    1.80000000e+00    7.89161828e-03
170      9.00318199e-09    1.80000000e+00    6.37854599e-03
171      9.00636399e-09    1.80000000e+00    3.93354334e-03
172      9.01272797e-09    1.80000000e+00    1.40191101e-03
173      9.02545595e-09    1.80000000e+00    3.62289313e-05
174      9.05091190e-09    1.80000000e+00   -1.19511975e-05
175      9.07636785e-09    1.80000000e+00    4.42068394e-06
176      9.12727975e-09    1.80000000e+00   -2.66193517e-06
177      9.22910354e-09    1.80000000e+00    2.09831511e-06
178      9.43275114e-09    1.80000000e+00   -1.85024093e-06
179      9.84004633e-09    1.80000000e+00    1.74804821e-06
180      1.05000000e-08    1.80000000e+00   -1.67675116e-06
181      1.05031250e-08    1.78875000e+00   -3.50043455e-03
182      1.05093750e-08    1.76625000e+00   -6.79890840e-03
183      1.05150000e-08    1.74600000e+00   -8.33844068e-03
184      1.05206250e-08    1.72575000e+00   -9.41085523e-03
185      1.05318750e-08    1.68525000e+00   -1.01668329e-02
186      1.05543750e-08    1.60425000e+00   -1.08017340e-02
187      1.05768750e-08    1.52325000e+00   -1.15636459e-02
188      1.06218750e-08    1.36125000e+00   -1.37319819e-02
189      1.07118750e-08    1.03725000e+00   -2.46241723e-02
190      1.08018750e-08    7.13250000e-01   -4.75199154e-02
191      1.08243750e-08    6.32250000e-01   -4.08865592e-02
192      1.08334114e-08    5.99719100e-01   -3.41642444e-02
193      1.08424477e-08    5.67188201e-01   -2.43616618e-02
194      1.08605204e-08    5.02126401e-01    1.36476121e-02
195      1.08767859e-08    4.43570782e-01    8.05306984e-02
196      1.08900169e-08    3.95939201e-01    1.66367884e-01
197      1.09017376e-08    3.53744490e-01    2.62390502e-01
198      1.09134584e-08    3.11549778e-01    3.77878002e-01
199      1.09251791e-08    2.69355067e-01    5.13734638e-01
200      1.09368999e-08    2.27160356e-01    6.70406396e-01
201      1.09486207e-08    1.84965645e-01    8.47361978e-01
202      1.09603414e-08    1.42770933e-01    1.04176934e+00
203      1.09720622e-08    1.00576222e-01    1.23960471e+00
204      1.09737226e-08    9.45987246e-02    1.26581836e+00
205      1.09770434e-08    8.26437293e-02    1.31511826e+00
206      1.09836851e-08    5.87337389e-02    1.39869717e+00
207      1.09903267e-08    3.48237484e-02    1.46555282e+00
208      1.09969684e-08    1.09137579e-02    1.52022850e+00
209      1.10000000e-08    0.00000000e+00    1.54193156e+00
210      1.10006642e-08    0.00000000e+00    1.54754710e+00
211      1.10012445e-08    0.00000000e+00    1.55232277e+00
212      1.10024050e-08    0.00000000e+00    1.56167768e+00
213      1.10047262e-08    0.00000000e+00    1.57936033e+00
214      1.10093685e-08    0.00000000e+00    1.61098843e+00
215      1.10140108e-08    0.00000000e+00    1.63819370e+00
216      1.10186531e-08    0.00000000e+00    1.66158476e+00
217      1.10279377e-08    0.00000000e+00    1.69907250e+00
218      1.10372224e-08    0.00000000e+00    1.72660305e+00
219      1.10465070e-08    0.00000000e+00    1.74673693e+00
220      1.10557916e-08    0.00000000e+00    1.76141021e+00
221      1.10650762e-08    0.00000000e+00    1.77207512e+00
222      1.10836454e-08    0.00000000e+00    1.78566223e+00
223      1.11207839e-08    0.00000000e+00    1.79690231e+00
224      1.11950609e-08    0.00000000e+00    1.80042550e+00
225      1.12619101e-08    0.00000000e+00    1.79993612e+00
226      1.13287594e-08    0.00000000e+00    1.80000515e+00
227      1.13956086e-08    0.00000000e+00    1.79999932e+00
228      1.15293072e-08    0.00000000e+00    1.80000019e+00
229      1.17967042e-08    0.00000000e+00    1.79999988e+00
230      1.23314982e-08    0.00000000e+00    1.80000004e+00
231      1.34010863e-08    0.00000000e+00    1.79999994e+00
232      1.55402625e-08    0.00000000e+00    1.80000002e+00
233      1.80402625e-08    0.00000000e+00    1.79999996e+00
234      2.05402625e-08    0.00000000e+00    1.80000001e+00
235      2.30402625e-08    0.00000000e+00    1.79999997e+00
236      2.50000000e-08    0.00000000e+00    1.79999999e+00
End of Xyce(TM) Simulation
