Index       TIME             V(IN0)            V(IN1)            V(OUT)      
0        0.00000000e+00    0.00000000e+00    0.00000000e+00    1.79999999e+00
1        1.00000000e-12    0.00000000e+00    0.00000000e+00    1.79999999e+00
2        3.00000000e-12    0.00000000e+00    0.00000000e+00    1.79999999e+00
3        7.00000000e-12    0.00000000e+00    0.00000000e+00    1.79999999e+00
4        1.50000000e-11    0.00000000e+00    0.00000000e+00    1.79999999e+00
5        3.10000000e-11    0.00000000e+00    0.00000000e+00    1.79999999e+00
6        6.30000000e-11    0.00000000e+00    0.00000000e+00    1.79999999e+00
7        1.27000000e-10    0.00000000e+00    0.00000000e+00    1.79999999e+00
8        2.55000000e-10    0.00000000e+00    0.00000000e+00    1.79999999e+00
9        5.11000000e-10    0.00000000e+00    0.00000000e+00    1.79999999e+00
10       1.02300000e-09    0.00000000e+00    0.00000000e+00    1.79999999e+00
11       2.04700000e-09    0.00000000e+00    0.00000000e+00    1.79999999e+00
12       4.09500000e-09    0.00000000e+00    0.00000000e+00    1.79999999e+00
13       4.50000000e-09    0.00000000e+00    0.00000000e+00    1.79999999e+00
14       4.50312500e-09    1.12500000e-02    0.00000000e+00    1.80375300e+00
15       4.50937500e-09    3.37500000e-02    0.00000000e+00    1.80909808e+00
16       4.51562500e-09    5.62500000e-02    0.00000000e+00    1.81356986e+00
17       4.52812500e-09    1.01250000e-01    0.00000000e+00    1.81885598e+00
18       4.54062500e-09    1.46250000e-01    0.00000000e+00    1.82142141e+00
19       4.56562500e-09    2.36250000e-01    0.00000000e+00    1.82396844e+00
20       4.59062500e-09    3.26250000e-01    0.00000000e+00    1.82551627e+00
21       4.64062500e-09    5.06250000e-01    0.00000000e+00    1.82909905e+00
22       4.69062500e-09    6.86250000e-01    0.00000000e+00    1.83334974e+00
23       4.74062500e-09    8.66250000e-01    0.00000000e+00    1.83457696e+00
24       4.79062500e-09    1.04625000e+00    0.00000000e+00    1.82309767e+00
25       4.83562500e-09    1.20825000e+00    0.00000000e+00    1.80135694e+00
26       4.87612500e-09    1.35405000e+00    0.00000000e+00    1.78830412e+00
27       4.91662500e-09    1.49985000e+00    0.00000000e+00    1.78109386e+00
28       4.95712500e-09    1.64565000e+00    0.00000000e+00    1.77875827e+00
29       4.99762500e-09    1.79145000e+00    0.00000000e+00    1.77851093e+00
30       5.00000000e-09    1.80000000e+00    0.00000000e+00    1.77852953e+00
31       5.00237500e-09    1.80000000e+00    0.00000000e+00    1.77751183e+00
32       5.00475000e-09    1.80000000e+00    0.00000000e+00    1.77673216e+00
33       5.00950000e-09    1.80000000e+00    0.00000000e+00    1.77554963e+00
34       5.01900000e-09    1.80000000e+00    0.00000000e+00    1.77490481e+00
35       5.03800000e-09    1.80000000e+00    0.00000000e+00    1.77707628e+00
36       5.07600000e-09    1.80000000e+00    0.00000000e+00    1.78423137e+00
37       5.11400000e-09    1.80000000e+00    0.00000000e+00    1.78965679e+00
38       5.15200000e-09    1.80000000e+00    0.00000000e+00    1.79273166e+00
39       5.22800000e-09    1.80000000e+00    0.00000000e+00    1.79573255e+00
40       5.30400000e-09    1.80000000e+00    0.00000000e+00    1.79695632e+00
41       5.45600000e-09    1.80000000e+00    0.00000000e+00    1.79815176e+00
42       5.60800000e-09    1.80000000e+00    0.00000000e+00    1.79866655e+00
43       5.91200000e-09    1.80000000e+00    0.00000000e+00    1.79918683e+00
44       6.21600000e-09    1.80000000e+00    0.00000000e+00    1.79940890e+00
45       6.82400000e-09    1.80000000e+00    0.00000000e+00    1.79964067e+00
46       7.43200000e-09    1.80000000e+00    0.00000000e+00    1.79973548e+00
47       8.64800000e-09    1.80000000e+00    0.00000000e+00    1.79984164e+00
48       9.50000000e-09    1.80000000e+00    0.00000000e+00    1.79986797e+00
49       9.50312500e-09    1.78875000e+00    1.12500000e-02    1.80269219e+00
50       9.50937500e-09    1.76625000e+00    3.37500000e-02    1.80731905e+00
51       9.51562500e-09    1.74375000e+00    5.62500000e-02    1.81152826e+00
52       9.52812500e-09    1.69875000e+00    1.01250000e-01    1.81784111e+00
53       9.55312500e-09    1.60875000e+00    1.91250000e-01    1.82598687e+00
54       9.57812500e-09    1.51875000e+00    2.81250000e-01    1.83138743e+00
55       9.60312500e-09    1.42875000e+00    3.71250000e-01    1.83591564e+00
56       9.62812500e-09    1.33875000e+00    4.61250000e-01    1.84002015e+00
57       9.65312500e-09    1.24875000e+00    5.51250000e-01    1.84359332e+00
58       9.67812500e-09    1.15875000e+00    6.41250000e-01    1.84609940e+00
59       9.70312500e-09    1.06875000e+00    7.31250000e-01    1.84664673e+00
60       9.70634087e-09    1.05717287e+00    7.42827128e-01    1.84654658e+00
61       9.70955674e-09    1.04559574e+00    7.54404256e-01    1.84635904e+00
62       9.71598848e-09    1.02244149e+00    7.77558512e-01    1.84580532e+00
63       9.72242021e-09    9.99287232e-01    8.00712768e-01    1.84498613e+00
64       9.72885195e-09    9.76132976e-01    8.23867024e-01    1.84386743e+00
65       9.73528369e-09    9.52978720e-01    8.47021280e-01    1.84241076e+00
66       9.74171543e-09    9.29824465e-01    8.70175535e-01    1.84057796e+00
67       9.74814716e-09    9.06670209e-01    8.93329791e-01    1.83833103e+00
68       9.75457890e-09    8.83515953e-01    9.16484047e-01    1.83564216e+00
69       9.76101064e-09    8.60361697e-01    9.39638303e-01    1.83250781e+00
70       9.76744238e-09    8.37207441e-01    9.62792559e-01    1.82900012e+00
71       9.77387412e-09    8.14053185e-01    9.85946815e-01    1.82539691e+00
72       9.78030585e-09    7.90898929e-01    1.00910107e+00    1.82241948e+00
73       9.78705187e-09    7.66613283e-01    1.03338672e+00    1.82092825e+00
74       9.79008918e-09    7.55678953e-01    1.04432105e+00    1.82048502e+00
75       9.79312649e-09    7.44744624e-01    1.05525538e+00    1.81984384e+00
76       9.79586008e-09    7.34903727e-01    1.06509627e+00    1.81898976e+00
77       9.79859366e-09    7.25062830e-01    1.07493717e+00    1.81790758e+00
78       9.80406082e-09    7.05381036e-01    1.09461896e+00    1.81469895e+00
79       9.80952799e-09    6.85699243e-01    1.11430076e+00    1.81006047e+00
80       9.81499515e-09    6.66017449e-01    1.13398255e+00    1.80406783e+00
81       9.82046232e-09    6.46335655e-01    1.15366434e+00    1.79788047e+00
82       9.82592948e-09    6.26653862e-01    1.17334614e+00    1.79227615e+00
83       9.83686381e-09    5.87290274e-01    1.21270973e+00    1.77964493e+00
84       9.84779814e-09    5.47926687e-01    1.25207331e+00    1.76670311e+00
85       9.85873247e-09    5.08563100e-01    1.29143690e+00    1.75516421e+00
86       9.88060113e-09    4.29835925e-01    1.37016407e+00    1.73891285e+00
87       9.90246979e-09    3.51108751e-01    1.44889125e+00    1.73184130e+00
88       9.92433845e-09    2.72381576e-01    1.52761842e+00    1.73164000e+00
89       9.94620711e-09    1.93654402e-01    1.60634560e+00    1.73541112e+00
90       9.98994443e-09    3.62000525e-02    1.76379995e+00    1.74617319e+00
91       1.00000000e-08    0.00000000e+00    1.80000000e+00    1.74867525e+00
92       1.00043737e-08    0.00000000e+00    1.80000000e+00    1.75530570e+00
93       1.00079890e-08    0.00000000e+00    1.80000000e+00    1.76017004e+00
94       1.00116042e-08    0.00000000e+00    1.80000000e+00    1.76475033e+00
95       1.00188347e-08    0.00000000e+00    1.80000000e+00    1.77241990e+00
96       1.00332957e-08    0.00000000e+00    1.80000000e+00    1.78325076e+00
97       1.00477567e-08    0.00000000e+00    1.80000000e+00    1.78983666e+00
98       1.00622177e-08    0.00000000e+00    1.80000000e+00    1.79383568e+00
99       1.00911397e-08    0.00000000e+00    1.80000000e+00    1.79788877e+00
100      1.01489837e-08    0.00000000e+00    1.80000000e+00    1.79997796e+00
101      1.02068277e-08    0.00000000e+00    1.80000000e+00    1.79999974e+00
102      1.03225157e-08    0.00000000e+00    1.80000000e+00    1.80000007e+00
103      1.04382037e-08    0.00000000e+00    1.80000000e+00    1.79999995e+00
104      1.06695796e-08    0.00000000e+00    1.80000000e+00    1.80000000e+00
105      1.11323315e-08    0.00000000e+00    1.80000000e+00    1.79999997e+00
106      1.20578354e-08    0.00000000e+00    1.80000000e+00    1.80000000e+00
107      1.39088431e-08    0.00000000e+00    1.80000000e+00    1.79999997e+00
108      1.45000000e-08    0.00000000e+00    1.80000000e+00    1.79999999e+00
109      1.45031250e-08    1.12500000e-02    1.80000000e+00    1.80515356e+00
110      1.45093750e-08    3.37500000e-02    1.80000000e+00    1.81333485e+00
111      1.45156250e-08    5.62500000e-02    1.80000000e+00    1.82062724e+00
112      1.45281250e-08    1.01250000e-01    1.80000000e+00    1.83117847e+00
113      1.45406250e-08    1.46250000e-01    1.80000000e+00    1.83822172e+00
114      1.45656250e-08    2.36250000e-01    1.80000000e+00    1.84787758e+00
115      1.45906250e-08    3.26250000e-01    1.80000000e+00    1.85560178e+00
116      1.46406250e-08    5.06250000e-01    1.80000000e+00    1.87497954e+00
117      1.46906250e-08    6.86250000e-01    1.80000000e+00    1.89584340e+00
118      1.46965551e-08    7.07598369e-01    1.80000000e+00    1.89699095e+00
119      1.47084153e-08    7.50295108e-01    1.80000000e+00    1.89675262e+00
120      1.47321357e-08    8.35688586e-01    1.80000000e+00    1.87503111e+00
121      1.47533760e-08    9.12153466e-01    1.80000000e+00    1.81574329e+00
122      1.47704557e-08    9.73640458e-01    1.80000000e+00    1.72612646e+00
123      1.47724415e-08    9.80789278e-01    1.80000000e+00    1.70971182e+00
124      1.47744272e-08    9.87938098e-01    1.80000000e+00    1.69221534e+00
125      1.47764130e-08    9.95086918e-01    1.80000000e+00    1.67349968e+00
126      1.47803846e-08    1.00938456e+00    1.80000000e+00    1.63284615e+00
127      1.47883277e-08    1.03797984e+00    1.80000000e+00    1.54004759e+00
128      1.47962709e-08    1.06657512e+00    1.80000000e+00    1.43243675e+00
129      1.48042140e-08    1.09517040e+00    1.80000000e+00    1.30997259e+00
130      1.48121571e-08    1.12376568e+00    1.80000000e+00    1.17265682e+00
131      1.48201003e-08    1.15236096e+00    1.80000000e+00    1.02088805e+00
132      1.48280434e-08    1.18095624e+00    1.80000000e+00    8.55702343e-01
133      1.48359865e-08    1.20955152e+00    1.80000000e+00    6.79672667e-01
134      1.48439297e-08    1.23814680e+00    1.80000000e+00    5.01118511e-01
135      1.48452601e-08    1.24293645e+00    1.80000000e+00    4.72613656e-01
136      1.48479210e-08    1.25251575e+00    1.80000000e+00    4.19348281e-01
137      1.48532429e-08    1.27167436e+00    1.80000000e+00    3.33274604e-01
138      1.48580325e-08    1.28891710e+00    1.80000000e+00    2.74990666e-01
139      1.48628222e-08    1.30615984e+00    1.80000000e+00    2.29124941e-01
140      1.48676118e-08    1.32340259e+00    1.80000000e+00    1.92208471e-01
141      1.48724015e-08    1.34064533e+00    1.80000000e+00    1.62175986e-01
142      1.48771911e-08    1.35788808e+00    1.80000000e+00    1.37638300e-01
143      1.48819808e-08    1.37513082e+00    1.80000000e+00    1.17573365e-01
144      1.48915601e-08    1.40961631e+00    1.80000000e+00    8.75996860e-02
145      1.49011394e-08    1.44410180e+00    1.80000000e+00    6.77555250e-02
146      1.49107187e-08    1.47858729e+00    1.80000000e+00    5.46602030e-02
147      1.49202980e-08    1.51307278e+00    1.80000000e+00    4.60533635e-02
148      1.49394566e-08    1.58204375e+00    1.80000000e+00    3.63892431e-02
149      1.49586152e-08    1.65101473e+00    1.80000000e+00    3.22768568e-02
150      1.49777738e-08    1.71998571e+00    1.80000000e+00    3.03811718e-02
151      1.50000000e-08    1.80000000e+00    1.80000000e+00    2.92653066e-02
152      1.50038317e-08    1.80000000e+00    1.80000000e+00    2.44878855e-02
153      1.50072803e-08    1.80000000e+00    1.80000000e+00    2.08445451e-02
154      1.50107288e-08    1.80000000e+00    1.80000000e+00    1.74926056e-02
155      1.50176259e-08    1.80000000e+00    1.80000000e+00    1.22765758e-02
156      1.50314201e-08    1.80000000e+00    1.80000000e+00    5.90198905e-03
157      1.50590085e-08    1.80000000e+00    1.80000000e+00    1.03580178e-03
158      1.51141853e-08    1.80000000e+00    1.80000000e+00   -1.81397373e-04
159      1.51693621e-08    1.80000000e+00    1.80000000e+00    3.73560336e-05
160      1.52245388e-08    1.80000000e+00    1.80000000e+00   -5.51204618e-06
161      1.53348924e-08    1.80000000e+00    1.80000000e+00    2.14569432e-06
162      1.55555995e-08    1.80000000e+00    1.80000000e+00   -1.17507407e-06
163      1.59970138e-08    1.80000000e+00    1.80000000e+00    8.49983905e-07
164      1.68798423e-08    1.80000000e+00    1.80000000e+00   -6.65661614e-07
165      1.86454993e-08    1.80000000e+00    1.80000000e+00    6.23248602e-07
166      2.11454993e-08    1.80000000e+00    1.80000000e+00   -5.44533050e-07
167      2.36454993e-08    1.80000000e+00    1.80000000e+00    5.26804976e-07
168      2.50000000e-08    1.80000000e+00    1.80000000e+00   -4.13415432e-07
End of Xyce(TM) Simulation
