Index       TIME             V(IN1)            V(IN2)            V(OUT)      
0        0.00000000e+00    0.00000000e+00    0.00000000e+00    1.79999999e+00
1        1.00000000e-12    0.00000000e+00    0.00000000e+00    1.79999999e+00
2        3.00000000e-12    0.00000000e+00    0.00000000e+00    1.79999999e+00
3        7.00000000e-12    0.00000000e+00    0.00000000e+00    1.79999999e+00
4        1.50000000e-11    0.00000000e+00    0.00000000e+00    1.79999999e+00
5        3.10000000e-11    0.00000000e+00    0.00000000e+00    1.79999999e+00
6        6.30000000e-11    0.00000000e+00    0.00000000e+00    1.79999999e+00
7        1.27000000e-10    0.00000000e+00    0.00000000e+00    1.79999999e+00
8        2.55000000e-10    0.00000000e+00    0.00000000e+00    1.79999999e+00
9        5.11000000e-10    0.00000000e+00    0.00000000e+00    1.79999999e+00
10       1.02300000e-09    0.00000000e+00    0.00000000e+00    1.79999999e+00
11       1.50000000e-09    0.00000000e+00    0.00000000e+00    1.79999999e+00
12       1.51250000e-09    4.50000000e-02    0.00000000e+00    1.80736056e+00
13       1.52137722e-09    7.69579795e-02    0.00000000e+00    1.81061896e+00
14       1.53025443e-09    1.08915959e-01    0.00000000e+00    1.81315474e+00
15       1.54800887e-09    1.72831918e-01    0.00000000e+00    1.81560607e+00
16       1.58351773e-09    3.00663836e-01    0.00000000e+00    1.81746142e+00
17       1.61902660e-09    4.28495754e-01    0.00000000e+00    1.81888676e+00
18       1.65453546e-09    5.56327672e-01    0.00000000e+00    1.82073361e+00
19       1.69004433e-09    6.84159591e-01    0.00000000e+00    1.82273182e+00
20       1.72555320e-09    8.11991509e-01    0.00000000e+00    1.82402925e+00
21       1.76106206e-09    9.39823427e-01    0.00000000e+00    1.82249941e+00
22       1.79657093e-09    1.06765534e+00    0.00000000e+00    1.81566660e+00
23       1.83207980e-09    1.19548726e+00    0.00000000e+00    1.80510208e+00
24       1.86758866e-09    1.32331918e+00    0.00000000e+00    1.79684678e+00
25       1.90309753e-09    1.45115110e+00    0.00000000e+00    1.79240188e+00
26       1.93860639e-09    1.57898302e+00    0.00000000e+00    1.79039789e+00
27       2.00000000e-09    1.80000000e+00    0.00000000e+00    1.78970391e+00
28       2.00710177e-09    1.80000000e+00    0.00000000e+00    1.78813737e+00
29       2.01278223e-09    1.80000000e+00    0.00000000e+00    1.78747900e+00
30       2.01846269e-09    1.80000000e+00    0.00000000e+00    1.78705500e+00
31       2.02982361e-09    1.80000000e+00    0.00000000e+00    1.78720078e+00
32       2.05254544e-09    1.80000000e+00    0.00000000e+00    1.78912299e+00
33       2.09798911e-09    1.80000000e+00    0.00000000e+00    1.79326067e+00
34       2.14343278e-09    1.80000000e+00    0.00000000e+00    1.79569207e+00
35       2.18887645e-09    1.80000000e+00    0.00000000e+00    1.79691209e+00
36       2.27976379e-09    1.80000000e+00    0.00000000e+00    1.79809937e+00
37       2.37065113e-09    1.80000000e+00    0.00000000e+00    1.79861844e+00
38       2.55242581e-09    1.80000000e+00    0.00000000e+00    1.79915020e+00
39       2.73420048e-09    1.80000000e+00    0.00000000e+00    1.79938074e+00
40       3.09774984e-09    1.80000000e+00    0.00000000e+00    1.79962364e+00
41       3.46129920e-09    1.80000000e+00    0.00000000e+00    1.79972221e+00
42       3.50000000e-09    1.80000000e+00    0.00000000e+00    1.79973334e+00
43       3.50241880e-09    1.79129232e+00    8.70768106e-03    1.80112704e+00
44       3.50725640e-09    1.77387696e+00    2.61230432e-02    1.80355143e+00
45       3.51693160e-09    1.73904623e+00    6.09537674e-02    1.80771856e+00
46       3.53628200e-09    1.66938478e+00    1.30615216e-01    1.81314424e+00
47       3.55563241e-09    1.59972334e+00    2.00276664e-01    1.81652629e+00
48       3.57498281e-09    1.53006189e+00    2.69938113e-01    1.81911926e+00
49       3.61368361e-09    1.39073899e+00    4.09261010e-01    1.82354394e+00
50       3.65238442e-09    1.25141609e+00    5.48583907e-01    1.82694344e+00
51       3.69108522e-09    1.11209320e+00    6.87906804e-01    1.82809550e+00
52       3.69405259e-09    1.10141069e+00    6.98589314e-01    1.82802794e+00
53       3.69998731e-09    1.08004567e+00    7.19954333e-01    1.82776533e+00
54       3.70592204e-09    1.05868065e+00    7.41319352e-01    1.82737548e+00
55       3.71185677e-09    1.03731563e+00    7.62684372e-01    1.82684492e+00
56       3.71779150e-09    1.01595061e+00    7.84049391e-01    1.82616273e+00
57       3.72372623e-09    9.94585590e-01    8.05414410e-01    1.82531558e+00
58       3.72966095e-09    9.73220571e-01    8.26779429e-01    1.82429434e+00
59       3.73559568e-09    9.51855551e-01    8.48144449e-01    1.82309284e+00
60       3.74153041e-09    9.30490532e-01    8.69509468e-01    1.82172435e+00
61       3.74746514e-09    9.09125513e-01    8.90874487e-01    1.82025220e+00
62       3.75339986e-09    8.87760493e-01    9.12239507e-01    1.81890374e+00
63       3.75933459e-09    8.66395474e-01    9.33604526e-01    1.81829752e+00
64       3.76643223e-09    8.40843961e-01    9.59156039e-01    1.82001274e+00
65       3.77352988e-09    8.15292447e-01    9.84707553e-01    1.82259327e+00
66       3.77922605e-09    7.94786218e-01    1.00521378e+00    1.82262438e+00
67       3.78492223e-09    7.74279989e-01    1.02572001e+00    1.81994392e+00
68       3.79061840e-09    7.53773760e-01    1.04622624e+00    1.81474490e+00
69       3.79631457e-09    7.33267530e-01    1.06673247e+00    1.80778892e+00
70       3.80201075e-09    7.12761301e-01    1.08723870e+00    1.79988772e+00
71       3.81340310e-09    6.71748843e-01    1.12825116e+00    1.78775714e+00
72       3.82479545e-09    6.30736384e-01    1.16926362e+00    1.77621147e+00
73       3.83618780e-09    5.89723926e-01    1.21027607e+00    1.76635819e+00
74       3.85897250e-09    5.07699009e-01    1.29230099e+00    1.75273204e+00
75       3.88175720e-09    4.25674093e-01    1.37432591e+00    1.74708724e+00
76       3.90454190e-09    3.43649176e-01    1.45635082e+00    1.74730571e+00
77       3.92732659e-09    2.61624259e-01    1.53837574e+00    1.75094714e+00
78       3.97289599e-09    9.75744257e-02    1.70242557e+00    1.76048114e+00
79       4.00000000e-09    0.00000000e+00    1.80000000e+00    1.76554193e+00
80       4.00455694e-09    0.00000000e+00    1.80000000e+00    1.77046877e+00
81       4.00865819e-09    0.00000000e+00    1.80000000e+00    1.77430734e+00
82       4.01275943e-09    0.00000000e+00    1.80000000e+00    1.77787616e+00
83       4.02096192e-09    0.00000000e+00    1.80000000e+00    1.78362401e+00
84       4.03736691e-09    0.00000000e+00    1.80000000e+00    1.79115662e+00
85       4.05377189e-09    0.00000000e+00    1.80000000e+00    1.79522691e+00
86       4.08658186e-09    0.00000000e+00    1.80000000e+00    1.79879806e+00
87       4.11939182e-09    0.00000000e+00    1.80000000e+00    1.79969749e+00
88       4.18501176e-09    0.00000000e+00    1.80000000e+00    1.80002883e+00
89       4.25063169e-09    0.00000000e+00    1.80000000e+00    1.79999553e+00
90       4.38187156e-09    0.00000000e+00    1.80000000e+00    1.80000190e+00
91       4.64435129e-09    0.00000000e+00    1.80000000e+00    1.79999869e+00
92       5.16931076e-09    0.00000000e+00    1.80000000e+00    1.80000105e+00
93       5.50000000e-09    0.00000000e+00    1.80000000e+00    1.79999920e+00
94       5.50312500e-09    1.12500000e-02    1.80000000e+00    1.80367069e+00
95       5.50937500e-09    3.37500000e-02    1.80000000e+00    1.80944693e+00
96       5.51562500e-09    5.62500000e-02    1.80000000e+00    1.81458490e+00
97       5.52812500e-09    1.01250000e-01    1.80000000e+00    1.82196064e+00
98       5.54062500e-09    1.46250000e-01    1.80000000e+00    1.82682821e+00
99       5.56562500e-09    2.36250000e-01    1.80000000e+00    1.83342802e+00
100      5.59062500e-09    3.26250000e-01    1.80000000e+00    1.83866261e+00
101      5.64062500e-09    5.06250000e-01    1.80000000e+00    1.85183111e+00
102      5.69062500e-09    6.86250000e-01    1.80000000e+00    1.86242848e+00
103      5.69605395e-09    7.05794206e-01    1.80000000e+00    1.86203569e+00
104      5.70691184e-09    7.44882618e-01    1.80000000e+00    1.85888314e+00
105      5.72862762e-09    8.23059442e-01    1.80000000e+00    1.83278865e+00
106      5.74817183e-09    8.93418584e-01    1.80000000e+00    1.77705707e+00
107      5.75114426e-09    9.04119333e-01    1.80000000e+00    1.76499286e+00
108      5.75411669e-09    9.14820081e-01    1.80000000e+00    1.75182903e+00
109      5.76006155e-09    9.36221578e-01    1.80000000e+00    1.71942043e+00
110      5.76600641e-09    9.57623075e-01    1.80000000e+00    1.67744512e+00
111      5.77195127e-09    9.79024572e-01    1.80000000e+00    1.62656467e+00
112      5.77789613e-09    1.00042607e+00    1.80000000e+00    1.56773509e+00
113      5.78384099e-09    1.02182757e+00    1.80000000e+00    1.50115856e+00
114      5.78978585e-09    1.04322906e+00    1.80000000e+00    1.42668733e+00
115      5.79573071e-09    1.06463056e+00    1.80000000e+00    1.34415083e+00
116      5.80167557e-09    1.08603206e+00    1.80000000e+00    1.25336754e+00
117      5.80762043e-09    1.10743355e+00    1.80000000e+00    1.15425771e+00
118      5.81356529e-09    1.12883505e+00    1.80000000e+00    1.04680320e+00
119      5.81951015e-09    1.15023655e+00    1.80000000e+00    9.31181218e-01
120      5.82545501e-09    1.17163805e+00    1.80000000e+00    8.07807830e-01
121      5.83139987e-09    1.19303954e+00    1.80000000e+00    6.77651018e-01
122      5.83734473e-09    1.21444104e+00    1.80000000e+00    5.43089105e-01
123      5.84312644e-09    1.23525519e+00    1.80000000e+00    4.16842905e-01
124      5.84561825e-09    1.24422570e+00    1.80000000e+00    3.68664557e-01
125      5.84811006e-09    1.25319620e+00    1.80000000e+00    3.25223190e-01
126      5.85309367e-09    1.27113720e+00    1.80000000e+00    2.54506107e-01
127      5.85807728e-09    1.28907821e+00    1.80000000e+00    1.99984163e-01
128      5.86306089e-09    1.30701921e+00    1.80000000e+00    1.57492544e-01
129      5.86804450e-09    1.32496022e+00    1.80000000e+00    1.24488137e-01
130      5.87302812e-09    1.34290122e+00    1.80000000e+00    9.90027731e-02
131      5.87801173e-09    1.36084222e+00    1.80000000e+00    7.94971412e-02
132      5.88299534e-09    1.37878323e+00    1.80000000e+00    6.46382041e-02
133      5.89296257e-09    1.41466524e+00    1.80000000e+00    4.46679224e-02
134      5.91289701e-09    1.48642925e+00    1.80000000e+00    2.64227845e-02
135      5.93283146e-09    1.55819327e+00    1.80000000e+00    2.13672300e-02
136      5.95276591e-09    1.62995729e+00    1.80000000e+00    1.97744577e-02
137      5.97270036e-09    1.70172130e+00    1.80000000e+00    1.91113083e-02
138      6.00000000e-09    1.80000000e+00    1.80000000e+00    1.85621464e-02
139      6.00398689e-09    1.80000000e+00    1.80000000e+00    1.46547224e-02
140      6.00797378e-09    1.80000000e+00    1.80000000e+00    1.15301389e-02
141      6.01196067e-09    1.80000000e+00    1.80000000e+00    8.76345845e-03
142      6.01993445e-09    1.80000000e+00    1.80000000e+00    4.98458211e-03
143      6.03588201e-09    1.80000000e+00    1.80000000e+00    1.44954627e-03
144      6.06777713e-09    1.80000000e+00    1.80000000e+00   -7.22450698e-05
145      6.09967225e-09    1.80000000e+00    1.80000000e+00    6.61820635e-06
146      6.16346248e-09    1.80000000e+00    1.80000000e+00   -2.33112222e-06
147      6.22725272e-09    1.80000000e+00    1.80000000e+00    7.45029848e-07
148      6.35483319e-09    1.80000000e+00    1.80000000e+00   -3.53599881e-07
149      6.60999414e-09    1.80000000e+00    1.80000000e+00    2.49648700e-07
150      7.12031604e-09    1.80000000e+00    1.80000000e+00   -1.72020082e-07
151      8.00000000e-09    1.80000000e+00    1.80000000e+00    1.67647361e-07
152      8.10206438e-09    1.80000000e+00    1.80000000e+00    7.23377961e-08
153      8.30619314e-09    1.80000000e+00    1.80000000e+00    1.62454818e-08
154      8.71445066e-09    1.80000000e+00    1.80000000e+00    8.31196754e-09
155      9.53096569e-09    1.80000000e+00    1.80000000e+00    1.54231472e-08
156      1.11639958e-08    1.80000000e+00    1.80000000e+00    8.68725346e-09
157      1.36639958e-08    1.80000000e+00    1.80000000e+00    1.52443826e-08
158      1.61639958e-08    1.80000000e+00    1.80000000e+00    8.82057849e-09
159      1.86639958e-08    1.80000000e+00    1.80000000e+00    1.51009237e-08
160      2.11639958e-08    1.80000000e+00    1.80000000e+00    8.96075922e-09
161      2.36639958e-08    1.80000000e+00    1.80000000e+00    1.49638912e-08
162      2.50000000e-08    1.80000000e+00    1.80000000e+00    9.15332119e-09
End of Xyce(TM) Simulation
